Command: /fetools/work_area/frontend/Batch_11/vipulsharma/UVM/AXI4/./simv -l simulate.log -cm line+cond+fsm+tgl+branch+assert +UVM_TESTNAME=my_test
Chronologic VCS simulator copyright 1991-2020
Contains Synopsys proprietary information.
Compiler version Q-2020.03-SP2-8_Full64; Runtime version Q-2020.03-SP2-8_Full64;  Sep 22 00:16 2026
UVM_INFO /fetools/synopsys/installed_tools/vcs/vcs/Q-2020.03-SP2-8/etc/uvm-1.2/base/uvm_root.svh(402) @ 0: reporter [UVM/RELNOTES] 
----------------------------------------------------------------
UVM-1.2.Synopsys
(C) 2007-2014 Mentor Graphics Corporation
(C) 2007-2014 Cadence Design Systems, Inc.
(C) 2006-2014 Synopsys, Inc.
(C) 2011-2013 Cypress Semiconductor Corp.
(C) 2013-2014 NVIDIA Corporation
----------------------------------------------------------------

  ***********       IMPORTANT RELEASE NOTES         ************

  You are using a version of the UVM library that has been compiled
  with `UVM_NO_DEPRECATED undefined.
  See http://www.eda.org/svdb/view.php?id=3313 for more details.

  You are using a version of the UVM library that has been compiled
  with `UVM_OBJECT_DO_NOT_NEED_CONSTRUCTOR undefined.
  See http://www.eda.org/svdb/view.php?id=3770 for more details.

      (Specify +UVM_NO_RELNOTES to turn off this notice)

UVM_INFO @ 0: reporter [RNTST] Running test my_test...
UVM_INFO axi_driver.sv(36) @ 0: uvm_test_top.env.agt.drv [axi_driver] op=WRITE
UVM_INFO axi_scoreboard.sv(58) @ 60000: uvm_test_top.env.scb [axi_scoreboard] Write MATCH addr=0 resp=0
UVM_INFO axi_driver.sv(36) @ 60000: uvm_test_top.env.agt.drv [axi_driver] op=WRITE
UVM_INFO axi_scoreboard.sv(58) @ 110000: uvm_test_top.env.scb [axi_scoreboard] Write MATCH addr=4 resp=0
UVM_INFO axi_driver.sv(36) @ 110000: uvm_test_top.env.agt.drv [axi_driver] op=WRITE
UVM_INFO axi_scoreboard.sv(58) @ 160000: uvm_test_top.env.scb [axi_scoreboard] Write MATCH addr=8 resp=0
UVM_INFO axi_driver.sv(36) @ 160000: uvm_test_top.env.agt.drv [axi_driver] op=WRITE
UVM_INFO axi_scoreboard.sv(58) @ 210000: uvm_test_top.env.scb [axi_scoreboard] Write MATCH addr=c resp=0
UVM_INFO axi_driver.sv(36) @ 210000: uvm_test_top.env.agt.drv [axi_driver] op=WRITE
UVM_INFO axi_scoreboard.sv(58) @ 260000: uvm_test_top.env.scb [axi_scoreboard] Write MATCH addr=10 resp=0
UVM_INFO axi_driver.sv(36) @ 260000: uvm_test_top.env.agt.drv [axi_driver] op=WRITE
UVM_INFO axi_scoreboard.sv(58) @ 310000: uvm_test_top.env.scb [axi_scoreboard] Write MATCH addr=14 resp=0
UVM_INFO axi_driver.sv(36) @ 310000: uvm_test_top.env.agt.drv [axi_driver] op=WRITE
UVM_INFO axi_scoreboard.sv(58) @ 360000: uvm_test_top.env.scb [axi_scoreboard] Write MATCH addr=18 resp=0
UVM_INFO axi_driver.sv(36) @ 360000: uvm_test_top.env.agt.drv [axi_driver] op=WRITE
UVM_INFO axi_scoreboard.sv(58) @ 410000: uvm_test_top.env.scb [axi_scoreboard] Write MATCH addr=1c resp=0
UVM_INFO axi_driver.sv(36) @ 410000: uvm_test_top.env.agt.drv [axi_driver] op=WRITE
UVM_INFO axi_scoreboard.sv(58) @ 460000: uvm_test_top.env.scb [axi_scoreboard] Write MATCH addr=20 resp=0
UVM_INFO axi_driver.sv(36) @ 460000: uvm_test_top.env.agt.drv [axi_driver] op=WRITE
UVM_INFO axi_scoreboard.sv(58) @ 510000: uvm_test_top.env.scb [axi_scoreboard] Write MATCH addr=24 resp=0
UVM_INFO axi_driver.sv(36) @ 510000: uvm_test_top.env.agt.drv [axi_driver] op=WRITE
UVM_INFO axi_scoreboard.sv(58) @ 560000: uvm_test_top.env.scb [axi_scoreboard] Write MATCH addr=28 resp=10
UVM_INFO axi_driver.sv(36) @ 560000: uvm_test_top.env.agt.drv [axi_driver] op=WRITE
UVM_INFO axi_scoreboard.sv(58) @ 610000: uvm_test_top.env.scb [axi_scoreboard] Write MATCH addr=2c resp=10
UVM_INFO axi_driver.sv(36) @ 610000: uvm_test_top.env.agt.drv [axi_driver] op=WRITE
UVM_INFO axi_scoreboard.sv(58) @ 660000: uvm_test_top.env.scb [axi_scoreboard] Write MATCH addr=30 resp=10
UVM_INFO axi_driver.sv(36) @ 660000: uvm_test_top.env.agt.drv [axi_driver] op=WRITE
UVM_INFO axi_scoreboard.sv(58) @ 710000: uvm_test_top.env.scb [axi_scoreboard] Write MATCH addr=34 resp=0
UVM_INFO axi_driver.sv(36) @ 710000: uvm_test_top.env.agt.drv [axi_driver] op=WRITE
UVM_INFO axi_scoreboard.sv(58) @ 760000: uvm_test_top.env.scb [axi_scoreboard] Write MATCH addr=38 resp=0
UVM_INFO axi_driver.sv(36) @ 760000: uvm_test_top.env.agt.drv [axi_driver] op=WRITE
UVM_INFO axi_scoreboard.sv(58) @ 810000: uvm_test_top.env.scb [axi_scoreboard] Write MATCH addr=3c resp=0
UVM_INFO axi_driver.sv(36) @ 810000: uvm_test_top.env.agt.drv [axi_driver] op=READ
UVM_INFO axi_scoreboard.sv(91) @ 830000: uvm_test_top.env.scb [axi_scoreboard] Read MATCH addr=0 resp=0 data=b4964733
UVM_INFO axi_driver.sv(36) @ 830000: uvm_test_top.env.agt.drv [axi_driver] op=READ
UVM_INFO axi_scoreboard.sv(91) @ 860000: uvm_test_top.env.scb [axi_scoreboard] Read MATCH addr=4 resp=0 data=80
UVM_INFO axi_driver.sv(36) @ 860000: uvm_test_top.env.agt.drv [axi_driver] op=READ
UVM_INFO axi_scoreboard.sv(91) @ 890000: uvm_test_top.env.scb [axi_scoreboard] Read MATCH addr=8 resp=0 data=5e
UVM_INFO axi_driver.sv(36) @ 890000: uvm_test_top.env.agt.drv [axi_driver] op=READ
UVM_INFO axi_scoreboard.sv(91) @ 920000: uvm_test_top.env.scb [axi_scoreboard] Read MATCH addr=c resp=0 data=ca313ebc
UVM_INFO axi_driver.sv(36) @ 920000: uvm_test_top.env.agt.drv [axi_driver] op=READ
UVM_INFO axi_scoreboard.sv(91) @ 950000: uvm_test_top.env.scb [axi_scoreboard] Read MATCH addr=10 resp=0 data=86000000
UVM_INFO axi_driver.sv(36) @ 950000: uvm_test_top.env.agt.drv [axi_driver] op=READ
UVM_INFO axi_scoreboard.sv(91) @ 980000: uvm_test_top.env.scb [axi_scoreboard] Read MATCH addr=14 resp=0 data=3100
UVM_INFO axi_driver.sv(36) @ 980000: uvm_test_top.env.agt.drv [axi_driver] op=READ
UVM_INFO axi_scoreboard.sv(91) @ 1010000: uvm_test_top.env.scb [axi_scoreboard] Read MATCH addr=18 resp=0 data=0
UVM_INFO axi_driver.sv(36) @ 1010000: uvm_test_top.env.agt.drv [axi_driver] op=READ
UVM_INFO axi_scoreboard.sv(91) @ 1040000: uvm_test_top.env.scb [axi_scoreboard] Read MATCH addr=1c resp=0 data=17c21321
UVM_INFO axi_driver.sv(36) @ 1040000: uvm_test_top.env.agt.drv [axi_driver] op=READ
UVM_INFO axi_scoreboard.sv(91) @ 1070000: uvm_test_top.env.scb [axi_scoreboard] Read MATCH addr=20 resp=0 data=0
UVM_INFO axi_driver.sv(36) @ 1070000: uvm_test_top.env.agt.drv [axi_driver] op=READ
UVM_INFO axi_scoreboard.sv(91) @ 1100000: uvm_test_top.env.scb [axi_scoreboard] Read MATCH addr=24 resp=0 data=b0000
UVM_INFO axi_driver.sv(36) @ 1100000: uvm_test_top.env.agt.drv [axi_driver] op=READ
UVM_INFO axi_scoreboard.sv(91) @ 1130000: uvm_test_top.env.scb [axi_scoreboard] Read MATCH addr=28 resp=0 data=0
UVM_INFO axi_driver.sv(36) @ 1130000: uvm_test_top.env.agt.drv [axi_driver] op=READ
UVM_INFO axi_scoreboard.sv(91) @ 1160000: uvm_test_top.env.scb [axi_scoreboard] Read MATCH addr=2c resp=0 data=0
UVM_INFO axi_driver.sv(36) @ 1160000: uvm_test_top.env.agt.drv [axi_driver] op=READ
UVM_INFO axi_scoreboard.sv(91) @ 1190000: uvm_test_top.env.scb [axi_scoreboard] Read MATCH addr=30 resp=0 data=0
UVM_INFO axi_driver.sv(36) @ 1190000: uvm_test_top.env.agt.drv [axi_driver] op=READ
UVM_INFO axi_scoreboard.sv(91) @ 1220000: uvm_test_top.env.scb [axi_scoreboard] Read MATCH addr=34 resp=10 data=0
UVM_INFO axi_driver.sv(36) @ 1220000: uvm_test_top.env.agt.drv [axi_driver] op=READ
UVM_INFO axi_scoreboard.sv(91) @ 1250000: uvm_test_top.env.scb [axi_scoreboard] Read MATCH addr=38 resp=10 data=0
UVM_INFO axi_driver.sv(36) @ 1250000: uvm_test_top.env.agt.drv [axi_driver] op=READ
UVM_INFO axi_scoreboard.sv(91) @ 1280000: uvm_test_top.env.scb [axi_scoreboard] Read MATCH addr=3c resp=0 data=1f
UVM_INFO axi_driver.sv(36) @ 1280000: uvm_test_top.env.agt.drv [axi_driver] op=WRITE
UVM_INFO axi_scoreboard.sv(58) @ 1320000: uvm_test_top.env.scb [axi_scoreboard] Write MATCH addr=0 resp=0
UVM_INFO axi_driver.sv(36) @ 1320000: uvm_test_top.env.agt.drv [axi_driver] op=WRITE
UVM_INFO axi_scoreboard.sv(58) @ 1370000: uvm_test_top.env.scb [axi_scoreboard] Write MATCH addr=4 resp=0
UVM_INFO axi_driver.sv(36) @ 1370000: uvm_test_top.env.agt.drv [axi_driver] op=WRITE
UVM_INFO axi_scoreboard.sv(58) @ 1420000: uvm_test_top.env.scb [axi_scoreboard] Write MATCH addr=8 resp=0
UVM_INFO axi_driver.sv(36) @ 1420000: uvm_test_top.env.agt.drv [axi_driver] op=WRITE
UVM_INFO axi_scoreboard.sv(58) @ 1470000: uvm_test_top.env.scb [axi_scoreboard] Write MATCH addr=c resp=0
UVM_INFO axi_driver.sv(36) @ 1470000: uvm_test_top.env.agt.drv [axi_driver] op=WRITE
UVM_INFO axi_scoreboard.sv(58) @ 1520000: uvm_test_top.env.scb [axi_scoreboard] Write MATCH addr=10 resp=0
UVM_INFO axi_driver.sv(36) @ 1520000: uvm_test_top.env.agt.drv [axi_driver] op=WRITE
UVM_INFO axi_scoreboard.sv(58) @ 1570000: uvm_test_top.env.scb [axi_scoreboard] Write MATCH addr=14 resp=0
UVM_INFO axi_driver.sv(36) @ 1570000: uvm_test_top.env.agt.drv [axi_driver] op=WRITE
UVM_INFO axi_scoreboard.sv(58) @ 1620000: uvm_test_top.env.scb [axi_scoreboard] Write MATCH addr=18 resp=0
UVM_INFO axi_driver.sv(36) @ 1620000: uvm_test_top.env.agt.drv [axi_driver] op=WRITE
UVM_INFO axi_scoreboard.sv(58) @ 1670000: uvm_test_top.env.scb [axi_scoreboard] Write MATCH addr=1c resp=0
UVM_INFO axi_driver.sv(36) @ 1670000: uvm_test_top.env.agt.drv [axi_driver] op=WRITE
UVM_INFO axi_scoreboard.sv(58) @ 1720000: uvm_test_top.env.scb [axi_scoreboard] Write MATCH addr=20 resp=0
UVM_INFO axi_driver.sv(36) @ 1720000: uvm_test_top.env.agt.drv [axi_driver] op=WRITE
UVM_INFO axi_scoreboard.sv(58) @ 1770000: uvm_test_top.env.scb [axi_scoreboard] Write MATCH addr=24 resp=0
UVM_INFO axi_driver.sv(36) @ 1770000: uvm_test_top.env.agt.drv [axi_driver] op=WRITE
UVM_INFO axi_scoreboard.sv(58) @ 1820000: uvm_test_top.env.scb [axi_scoreboard] Write MATCH addr=28 resp=10
UVM_INFO axi_driver.sv(36) @ 1820000: uvm_test_top.env.agt.drv [axi_driver] op=WRITE
UVM_INFO axi_scoreboard.sv(58) @ 1870000: uvm_test_top.env.scb [axi_scoreboard] Write MATCH addr=2c resp=10
UVM_INFO axi_driver.sv(36) @ 1870000: uvm_test_top.env.agt.drv [axi_driver] op=WRITE
UVM_INFO axi_scoreboard.sv(58) @ 1920000: uvm_test_top.env.scb [axi_scoreboard] Write MATCH addr=30 resp=10
UVM_INFO axi_driver.sv(36) @ 1920000: uvm_test_top.env.agt.drv [axi_driver] op=WRITE
UVM_INFO axi_scoreboard.sv(58) @ 1970000: uvm_test_top.env.scb [axi_scoreboard] Write MATCH addr=34 resp=0
UVM_INFO axi_driver.sv(36) @ 1970000: uvm_test_top.env.agt.drv [axi_driver] op=WRITE
UVM_INFO axi_scoreboard.sv(58) @ 2020000: uvm_test_top.env.scb [axi_scoreboard] Write MATCH addr=38 resp=0
UVM_INFO axi_driver.sv(36) @ 2020000: uvm_test_top.env.agt.drv [axi_driver] op=WRITE
UVM_INFO axi_scoreboard.sv(58) @ 2070000: uvm_test_top.env.scb [axi_scoreboard] Write MATCH addr=3c resp=0
UVM_INFO axi_driver.sv(36) @ 2070000: uvm_test_top.env.agt.drv [axi_driver] op=READ
UVM_INFO axi_scoreboard.sv(91) @ 2090000: uvm_test_top.env.scb [axi_scoreboard] Read MATCH addr=0 resp=0 data=4f964733
UVM_INFO axi_driver.sv(36) @ 2090000: uvm_test_top.env.agt.drv [axi_driver] op=READ
UVM_INFO axi_scoreboard.sv(91) @ 2120000: uvm_test_top.env.scb [axi_scoreboard] Read MATCH addr=4 resp=0 data=1980
UVM_INFO axi_driver.sv(36) @ 2120000: uvm_test_top.env.agt.drv [axi_driver] op=READ
UVM_INFO axi_scoreboard.sv(91) @ 2150000: uvm_test_top.env.scb [axi_scoreboard] Read MATCH addr=8 resp=0 data=5e
UVM_INFO axi_driver.sv(36) @ 2150000: uvm_test_top.env.agt.drv [axi_driver] op=READ
UVM_INFO axi_scoreboard.sv(91) @ 2180000: uvm_test_top.env.scb [axi_scoreboard] Read MATCH addr=c resp=0 data=51313ebc
UVM_INFO axi_driver.sv(36) @ 2180000: uvm_test_top.env.agt.drv [axi_driver] op=READ
UVM_INFO axi_scoreboard.sv(91) @ 2210000: uvm_test_top.env.scb [axi_scoreboard] Read MATCH addr=10 resp=0 data=e3b06525
UVM_INFO axi_driver.sv(36) @ 2210000: uvm_test_top.env.agt.drv [axi_driver] op=READ
UVM_INFO axi_scoreboard.sv(91) @ 2240000: uvm_test_top.env.scb [axi_scoreboard] Read MATCH addr=14 resp=0 data=100
UVM_INFO axi_driver.sv(36) @ 2240000: uvm_test_top.env.agt.drv [axi_driver] op=READ
UVM_INFO axi_scoreboard.sv(91) @ 2270000: uvm_test_top.env.scb [axi_scoreboard] Read MATCH addr=18 resp=0 data=0
UVM_INFO axi_driver.sv(36) @ 2270000: uvm_test_top.env.agt.drv [axi_driver] op=READ
UVM_INFO axi_scoreboard.sv(91) @ 2300000: uvm_test_top.env.scb [axi_scoreboard] Read MATCH addr=1c resp=0 data=17c2d521
UVM_INFO axi_driver.sv(36) @ 2300000: uvm_test_top.env.agt.drv [axi_driver] op=READ
UVM_INFO axi_scoreboard.sv(91) @ 2330000: uvm_test_top.env.scb [axi_scoreboard] Read MATCH addr=20 resp=0 data=dd
UVM_INFO axi_driver.sv(36) @ 2330000: uvm_test_top.env.agt.drv [axi_driver] op=READ
UVM_INFO axi_scoreboard.sv(91) @ 2360000: uvm_test_top.env.scb [axi_scoreboard] Read MATCH addr=24 resp=0 data=9a51beab
UVM_INFO axi_driver.sv(36) @ 2360000: uvm_test_top.env.agt.drv [axi_driver] op=READ
UVM_INFO axi_scoreboard.sv(91) @ 2390000: uvm_test_top.env.scb [axi_scoreboard] Read MATCH addr=28 resp=0 data=0
UVM_INFO axi_driver.sv(36) @ 2390000: uvm_test_top.env.agt.drv [axi_driver] op=READ
UVM_INFO axi_scoreboard.sv(91) @ 2420000: uvm_test_top.env.scb [axi_scoreboard] Read MATCH addr=2c resp=0 data=0
UVM_INFO axi_driver.sv(36) @ 2420000: uvm_test_top.env.agt.drv [axi_driver] op=READ
UVM_INFO axi_scoreboard.sv(91) @ 2450000: uvm_test_top.env.scb [axi_scoreboard] Read MATCH addr=30 resp=0 data=0
UVM_INFO axi_driver.sv(36) @ 2450000: uvm_test_top.env.agt.drv [axi_driver] op=READ
UVM_INFO axi_scoreboard.sv(91) @ 2480000: uvm_test_top.env.scb [axi_scoreboard] Read MATCH addr=34 resp=10 data=0
UVM_INFO axi_driver.sv(36) @ 2480000: uvm_test_top.env.agt.drv [axi_driver] op=READ
UVM_INFO axi_scoreboard.sv(91) @ 2510000: uvm_test_top.env.scb [axi_scoreboard] Read MATCH addr=38 resp=10 data=0
UVM_INFO axi_driver.sv(36) @ 2510000: uvm_test_top.env.agt.drv [axi_driver] op=READ
UVM_INFO axi_scoreboard.sv(91) @ 2540000: uvm_test_top.env.scb [axi_scoreboard] Read MATCH addr=3c resp=0 data=eb
UVM_INFO axi_driver.sv(36) @ 2540000: uvm_test_top.env.agt.drv [axi_driver] op=WRITE
UVM_INFO axi_scoreboard.sv(58) @ 2580000: uvm_test_top.env.scb [axi_scoreboard] Write MATCH addr=0 resp=0
UVM_INFO axi_driver.sv(36) @ 2580000: uvm_test_top.env.agt.drv [axi_driver] op=WRITE
UVM_INFO axi_scoreboard.sv(58) @ 2630000: uvm_test_top.env.scb [axi_scoreboard] Write MATCH addr=4 resp=0
UVM_INFO axi_driver.sv(36) @ 2630000: uvm_test_top.env.agt.drv [axi_driver] op=WRITE
UVM_INFO axi_scoreboard.sv(58) @ 2680000: uvm_test_top.env.scb [axi_scoreboard] Write MATCH addr=8 resp=0
UVM_INFO axi_driver.sv(36) @ 2680000: uvm_test_top.env.agt.drv [axi_driver] op=WRITE
UVM_INFO axi_scoreboard.sv(58) @ 2730000: uvm_test_top.env.scb [axi_scoreboard] Write MATCH addr=c resp=0
UVM_INFO axi_driver.sv(36) @ 2730000: uvm_test_top.env.agt.drv [axi_driver] op=WRITE
UVM_INFO axi_scoreboard.sv(58) @ 2780000: uvm_test_top.env.scb [axi_scoreboard] Write MATCH addr=10 resp=0
UVM_INFO axi_driver.sv(36) @ 2780000: uvm_test_top.env.agt.drv [axi_driver] op=WRITE
UVM_INFO axi_scoreboard.sv(58) @ 2830000: uvm_test_top.env.scb [axi_scoreboard] Write MATCH addr=14 resp=0
UVM_INFO axi_driver.sv(36) @ 2830000: uvm_test_top.env.agt.drv [axi_driver] op=WRITE
UVM_INFO axi_scoreboard.sv(58) @ 2880000: uvm_test_top.env.scb [axi_scoreboard] Write MATCH addr=18 resp=0
UVM_INFO axi_driver.sv(36) @ 2880000: uvm_test_top.env.agt.drv [axi_driver] op=WRITE
UVM_INFO axi_scoreboard.sv(58) @ 2930000: uvm_test_top.env.scb [axi_scoreboard] Write MATCH addr=1c resp=0
UVM_INFO axi_driver.sv(36) @ 2930000: uvm_test_top.env.agt.drv [axi_driver] op=WRITE
UVM_INFO axi_scoreboard.sv(58) @ 2980000: uvm_test_top.env.scb [axi_scoreboard] Write MATCH addr=20 resp=0
UVM_INFO axi_driver.sv(36) @ 2980000: uvm_test_top.env.agt.drv [axi_driver] op=WRITE
UVM_INFO axi_scoreboard.sv(58) @ 3030000: uvm_test_top.env.scb [axi_scoreboard] Write MATCH addr=24 resp=0
UVM_INFO axi_driver.sv(36) @ 3030000: uvm_test_top.env.agt.drv [axi_driver] op=WRITE
UVM_INFO axi_scoreboard.sv(58) @ 3080000: uvm_test_top.env.scb [axi_scoreboard] Write MATCH addr=28 resp=10
UVM_INFO axi_driver.sv(36) @ 3080000: uvm_test_top.env.agt.drv [axi_driver] op=WRITE
UVM_INFO axi_scoreboard.sv(58) @ 3130000: uvm_test_top.env.scb [axi_scoreboard] Write MATCH addr=2c resp=10
UVM_INFO axi_driver.sv(36) @ 3130000: uvm_test_top.env.agt.drv [axi_driver] op=WRITE
UVM_INFO axi_scoreboard.sv(58) @ 3180000: uvm_test_top.env.scb [axi_scoreboard] Write MATCH addr=30 resp=10
UVM_INFO axi_driver.sv(36) @ 3180000: uvm_test_top.env.agt.drv [axi_driver] op=WRITE
UVM_INFO axi_scoreboard.sv(58) @ 3230000: uvm_test_top.env.scb [axi_scoreboard] Write MATCH addr=34 resp=0
UVM_INFO axi_driver.sv(36) @ 3230000: uvm_test_top.env.agt.drv [axi_driver] op=WRITE
UVM_INFO axi_scoreboard.sv(58) @ 3280000: uvm_test_top.env.scb [axi_scoreboard] Write MATCH addr=38 resp=0
UVM_INFO axi_driver.sv(36) @ 3280000: uvm_test_top.env.agt.drv [axi_driver] op=WRITE
UVM_INFO axi_scoreboard.sv(58) @ 3330000: uvm_test_top.env.scb [axi_scoreboard] Write MATCH addr=3c resp=0
UVM_INFO axi_driver.sv(36) @ 3330000: uvm_test_top.env.agt.drv [axi_driver] op=READ
UVM_INFO axi_scoreboard.sv(91) @ 3350000: uvm_test_top.env.scb [axi_scoreboard] Read MATCH addr=0 resp=0 data=4f964733
UVM_INFO axi_driver.sv(36) @ 3350000: uvm_test_top.env.agt.drv [axi_driver] op=READ
UVM_INFO axi_scoreboard.sv(91) @ 3380000: uvm_test_top.env.scb [axi_scoreboard] Read MATCH addr=4 resp=0 data=f980
UVM_INFO axi_driver.sv(36) @ 3380000: uvm_test_top.env.agt.drv [axi_driver] op=READ
UVM_INFO axi_scoreboard.sv(91) @ 3410000: uvm_test_top.env.scb [axi_scoreboard] Read MATCH addr=8 resp=0 data=30
UVM_INFO axi_driver.sv(36) @ 3410000: uvm_test_top.env.agt.drv [axi_driver] op=READ
UVM_INFO axi_scoreboard.sv(91) @ 3440000: uvm_test_top.env.scb [axi_scoreboard] Read MATCH addr=c resp=0 data=4eb26d2a
UVM_INFO axi_driver.sv(36) @ 3440000: uvm_test_top.env.agt.drv [axi_driver] op=READ
UVM_INFO axi_scoreboard.sv(91) @ 3470000: uvm_test_top.env.scb [axi_scoreboard] Read MATCH addr=10 resp=0 data=61078524
UVM_INFO axi_driver.sv(36) @ 3470000: uvm_test_top.env.agt.drv [axi_driver] op=READ
UVM_INFO axi_scoreboard.sv(91) @ 3500000: uvm_test_top.env.scb [axi_scoreboard] Read MATCH addr=14 resp=0 data=fe00
UVM_INFO axi_driver.sv(36) @ 3500000: uvm_test_top.env.agt.drv [axi_driver] op=READ
UVM_INFO axi_scoreboard.sv(91) @ 3530000: uvm_test_top.env.scb [axi_scoreboard] Read MATCH addr=18 resp=0 data=830000
UVM_INFO axi_driver.sv(36) @ 3530000: uvm_test_top.env.agt.drv [axi_driver] op=READ
UVM_INFO axi_scoreboard.sv(91) @ 3560000: uvm_test_top.env.scb [axi_scoreboard] Read MATCH addr=1c resp=0 data=17c2d5a2
UVM_INFO axi_driver.sv(36) @ 3560000: uvm_test_top.env.agt.drv [axi_driver] op=READ
UVM_INFO axi_scoreboard.sv(91) @ 3590000: uvm_test_top.env.scb [axi_scoreboard] Read MATCH addr=20 resp=0 data=c10000dd
UVM_INFO axi_driver.sv(36) @ 3590000: uvm_test_top.env.agt.drv [axi_driver] op=READ
UVM_INFO axi_scoreboard.sv(91) @ 3620000: uvm_test_top.env.scb [axi_scoreboard] Read MATCH addr=24 resp=0 data=96a943aa
UVM_INFO axi_driver.sv(36) @ 3620000: uvm_test_top.env.agt.drv [axi_driver] op=READ
UVM_INFO axi_scoreboard.sv(91) @ 3650000: uvm_test_top.env.scb [axi_scoreboard] Read MATCH addr=28 resp=0 data=0
UVM_INFO axi_driver.sv(36) @ 3650000: uvm_test_top.env.agt.drv [axi_driver] op=READ
UVM_INFO axi_scoreboard.sv(91) @ 3680000: uvm_test_top.env.scb [axi_scoreboard] Read MATCH addr=2c resp=0 data=0
UVM_INFO axi_driver.sv(36) @ 3680000: uvm_test_top.env.agt.drv [axi_driver] op=READ
UVM_INFO axi_scoreboard.sv(91) @ 3710000: uvm_test_top.env.scb [axi_scoreboard] Read MATCH addr=30 resp=0 data=0
UVM_INFO axi_driver.sv(36) @ 3710000: uvm_test_top.env.agt.drv [axi_driver] op=READ
UVM_INFO axi_scoreboard.sv(91) @ 3740000: uvm_test_top.env.scb [axi_scoreboard] Read MATCH addr=34 resp=10 data=0
UVM_INFO axi_driver.sv(36) @ 3740000: uvm_test_top.env.agt.drv [axi_driver] op=READ
UVM_INFO axi_scoreboard.sv(91) @ 3770000: uvm_test_top.env.scb [axi_scoreboard] Read MATCH addr=38 resp=10 data=0
UVM_INFO axi_driver.sv(36) @ 3770000: uvm_test_top.env.agt.drv [axi_driver] op=READ
UVM_INFO axi_scoreboard.sv(91) @ 3800000: uvm_test_top.env.scb [axi_scoreboard] Read MATCH addr=3c resp=0 data=2b4b7bc6
UVM_INFO axi_driver.sv(36) @ 3800000: uvm_test_top.env.agt.drv [axi_driver] op=WRITE
UVM_INFO axi_scoreboard.sv(58) @ 3840000: uvm_test_top.env.scb [axi_scoreboard] Write MATCH addr=0 resp=0
UVM_INFO axi_driver.sv(36) @ 3840000: uvm_test_top.env.agt.drv [axi_driver] op=WRITE
UVM_INFO axi_scoreboard.sv(58) @ 3890000: uvm_test_top.env.scb [axi_scoreboard] Write MATCH addr=4 resp=0
UVM_INFO axi_driver.sv(36) @ 3890000: uvm_test_top.env.agt.drv [axi_driver] op=WRITE
UVM_INFO axi_scoreboard.sv(58) @ 3940000: uvm_test_top.env.scb [axi_scoreboard] Write MATCH addr=8 resp=0
UVM_INFO axi_driver.sv(36) @ 3940000: uvm_test_top.env.agt.drv [axi_driver] op=WRITE
UVM_INFO axi_scoreboard.sv(58) @ 3990000: uvm_test_top.env.scb [axi_scoreboard] Write MATCH addr=c resp=0
UVM_INFO axi_driver.sv(36) @ 3990000: uvm_test_top.env.agt.drv [axi_driver] op=WRITE
UVM_INFO axi_scoreboard.sv(58) @ 4040000: uvm_test_top.env.scb [axi_scoreboard] Write MATCH addr=10 resp=0
UVM_INFO axi_driver.sv(36) @ 4040000: uvm_test_top.env.agt.drv [axi_driver] op=WRITE
UVM_INFO axi_scoreboard.sv(58) @ 4090000: uvm_test_top.env.scb [axi_scoreboard] Write MATCH addr=14 resp=0
UVM_INFO axi_driver.sv(36) @ 4090000: uvm_test_top.env.agt.drv [axi_driver] op=WRITE
UVM_INFO axi_scoreboard.sv(58) @ 4140000: uvm_test_top.env.scb [axi_scoreboard] Write MATCH addr=18 resp=0
UVM_INFO axi_driver.sv(36) @ 4140000: uvm_test_top.env.agt.drv [axi_driver] op=WRITE
UVM_INFO axi_scoreboard.sv(58) @ 4190000: uvm_test_top.env.scb [axi_scoreboard] Write MATCH addr=1c resp=0
UVM_INFO axi_driver.sv(36) @ 4190000: uvm_test_top.env.agt.drv [axi_driver] op=WRITE
UVM_INFO axi_scoreboard.sv(58) @ 4240000: uvm_test_top.env.scb [axi_scoreboard] Write MATCH addr=20 resp=0
UVM_INFO axi_driver.sv(36) @ 4240000: uvm_test_top.env.agt.drv [axi_driver] op=WRITE
UVM_INFO axi_scoreboard.sv(58) @ 4290000: uvm_test_top.env.scb [axi_scoreboard] Write MATCH addr=24 resp=0
UVM_INFO axi_driver.sv(36) @ 4290000: uvm_test_top.env.agt.drv [axi_driver] op=WRITE
UVM_INFO axi_scoreboard.sv(58) @ 4340000: uvm_test_top.env.scb [axi_scoreboard] Write MATCH addr=28 resp=10
UVM_INFO axi_driver.sv(36) @ 4340000: uvm_test_top.env.agt.drv [axi_driver] op=WRITE
UVM_INFO axi_scoreboard.sv(58) @ 4390000: uvm_test_top.env.scb [axi_scoreboard] Write MATCH addr=2c resp=10
UVM_INFO axi_driver.sv(36) @ 4390000: uvm_test_top.env.agt.drv [axi_driver] op=WRITE
UVM_INFO axi_scoreboard.sv(58) @ 4440000: uvm_test_top.env.scb [axi_scoreboard] Write MATCH addr=30 resp=10
UVM_INFO axi_driver.sv(36) @ 4440000: uvm_test_top.env.agt.drv [axi_driver] op=WRITE
UVM_INFO axi_scoreboard.sv(58) @ 4490000: uvm_test_top.env.scb [axi_scoreboard] Write MATCH addr=34 resp=0
UVM_INFO axi_driver.sv(36) @ 4490000: uvm_test_top.env.agt.drv [axi_driver] op=WRITE
UVM_INFO axi_scoreboard.sv(58) @ 4540000: uvm_test_top.env.scb [axi_scoreboard] Write MATCH addr=38 resp=0
UVM_INFO axi_driver.sv(36) @ 4540000: uvm_test_top.env.agt.drv [axi_driver] op=WRITE
UVM_INFO axi_scoreboard.sv(58) @ 4590000: uvm_test_top.env.scb [axi_scoreboard] Write MATCH addr=3c resp=0
UVM_INFO axi_driver.sv(36) @ 4590000: uvm_test_top.env.agt.drv [axi_driver] op=READ
UVM_INFO axi_scoreboard.sv(91) @ 4610000: uvm_test_top.env.scb [axi_scoreboard] Read MATCH addr=0 resp=0 data=4f96472b
UVM_INFO axi_driver.sv(36) @ 4610000: uvm_test_top.env.agt.drv [axi_driver] op=READ
UVM_INFO axi_scoreboard.sv(91) @ 4640000: uvm_test_top.env.scb [axi_scoreboard] Read MATCH addr=4 resp=0 data=5600f980
UVM_INFO axi_driver.sv(36) @ 4640000: uvm_test_top.env.agt.drv [axi_driver] op=READ
UVM_INFO axi_scoreboard.sv(91) @ 4670000: uvm_test_top.env.scb [axi_scoreboard] Read MATCH addr=8 resp=0 data=6a000030
UVM_INFO axi_driver.sv(36) @ 4670000: uvm_test_top.env.agt.drv [axi_driver] op=READ
UVM_INFO axi_scoreboard.sv(91) @ 4700000: uvm_test_top.env.scb [axi_scoreboard] Read MATCH addr=c resp=0 data=4eb26d84
UVM_INFO axi_driver.sv(36) @ 4700000: uvm_test_top.env.agt.drv [axi_driver] op=READ
UVM_INFO axi_scoreboard.sv(91) @ 4730000: uvm_test_top.env.scb [axi_scoreboard] Read MATCH addr=10 resp=0 data=61508524
UVM_INFO axi_driver.sv(36) @ 4730000: uvm_test_top.env.agt.drv [axi_driver] op=READ
UVM_INFO axi_scoreboard.sv(91) @ 4760000: uvm_test_top.env.scb [axi_scoreboard] Read MATCH addr=14 resp=0 data=5bfe00
UVM_INFO axi_driver.sv(36) @ 4760000: uvm_test_top.env.agt.drv [axi_driver] op=READ
UVM_INFO axi_scoreboard.sv(91) @ 4790000: uvm_test_top.env.scb [axi_scoreboard] Read MATCH addr=18 resp=0 data=830000
UVM_INFO axi_driver.sv(36) @ 4790000: uvm_test_top.env.agt.drv [axi_driver] op=READ
UVM_INFO axi_scoreboard.sv(91) @ 4820000: uvm_test_top.env.scb [axi_scoreboard] Read MATCH addr=1c resp=0 data=85c2d5a2
UVM_INFO axi_driver.sv(36) @ 4820000: uvm_test_top.env.agt.drv [axi_driver] op=READ
UVM_INFO axi_scoreboard.sv(91) @ 4850000: uvm_test_top.env.scb [axi_scoreboard] Read MATCH addr=20 resp=0 data=c100e4dd
UVM_INFO axi_driver.sv(36) @ 4850000: uvm_test_top.env.agt.drv [axi_driver] op=READ
UVM_INFO axi_scoreboard.sv(91) @ 4880000: uvm_test_top.env.scb [axi_scoreboard] Read MATCH addr=24 resp=0 data=35a943aa
UVM_INFO axi_driver.sv(36) @ 4880000: uvm_test_top.env.agt.drv [axi_driver] op=READ
UVM_INFO axi_scoreboard.sv(91) @ 4910000: uvm_test_top.env.scb [axi_scoreboard] Read MATCH addr=28 resp=0 data=0
UVM_INFO axi_driver.sv(36) @ 4910000: uvm_test_top.env.agt.drv [axi_driver] op=READ
UVM_INFO axi_scoreboard.sv(91) @ 4940000: uvm_test_top.env.scb [axi_scoreboard] Read MATCH addr=2c resp=0 data=0
UVM_INFO axi_driver.sv(36) @ 4940000: uvm_test_top.env.agt.drv [axi_driver] op=READ
UVM_INFO axi_scoreboard.sv(91) @ 4970000: uvm_test_top.env.scb [axi_scoreboard] Read MATCH addr=30 resp=0 data=0
UVM_INFO axi_driver.sv(36) @ 4970000: uvm_test_top.env.agt.drv [axi_driver] op=READ
UVM_INFO axi_scoreboard.sv(91) @ 5000000: uvm_test_top.env.scb [axi_scoreboard] Read MATCH addr=34 resp=10 data=0
UVM_INFO axi_driver.sv(36) @ 5000000: uvm_test_top.env.agt.drv [axi_driver] op=READ
UVM_INFO axi_scoreboard.sv(91) @ 5030000: uvm_test_top.env.scb [axi_scoreboard] Read MATCH addr=38 resp=10 data=0
UVM_INFO axi_driver.sv(36) @ 5030000: uvm_test_top.env.agt.drv [axi_driver] op=READ
UVM_INFO axi_scoreboard.sv(91) @ 5060000: uvm_test_top.env.scb [axi_scoreboard] Read MATCH addr=3c resp=0 data=2bc57bc6
UVM_INFO axi_driver.sv(36) @ 5060000: uvm_test_top.env.agt.drv [axi_driver] op=WRITE
UVM_INFO axi_scoreboard.sv(58) @ 5100000: uvm_test_top.env.scb [axi_scoreboard] Write MATCH addr=0 resp=0
UVM_INFO axi_driver.sv(36) @ 5100000: uvm_test_top.env.agt.drv [axi_driver] op=WRITE
UVM_INFO axi_scoreboard.sv(58) @ 5150000: uvm_test_top.env.scb [axi_scoreboard] Write MATCH addr=4 resp=0
UVM_INFO axi_driver.sv(36) @ 5150000: uvm_test_top.env.agt.drv [axi_driver] op=WRITE
UVM_INFO axi_scoreboard.sv(58) @ 5200000: uvm_test_top.env.scb [axi_scoreboard] Write MATCH addr=8 resp=0
UVM_INFO axi_driver.sv(36) @ 5200000: uvm_test_top.env.agt.drv [axi_driver] op=WRITE
UVM_INFO axi_scoreboard.sv(58) @ 5250000: uvm_test_top.env.scb [axi_scoreboard] Write MATCH addr=c resp=0
UVM_INFO axi_driver.sv(36) @ 5250000: uvm_test_top.env.agt.drv [axi_driver] op=WRITE
UVM_INFO axi_scoreboard.sv(58) @ 5300000: uvm_test_top.env.scb [axi_scoreboard] Write MATCH addr=10 resp=0
UVM_INFO axi_driver.sv(36) @ 5300000: uvm_test_top.env.agt.drv [axi_driver] op=WRITE
UVM_INFO axi_scoreboard.sv(58) @ 5350000: uvm_test_top.env.scb [axi_scoreboard] Write MATCH addr=14 resp=0
UVM_INFO axi_driver.sv(36) @ 5350000: uvm_test_top.env.agt.drv [axi_driver] op=WRITE
UVM_INFO axi_scoreboard.sv(58) @ 5400000: uvm_test_top.env.scb [axi_scoreboard] Write MATCH addr=18 resp=0
UVM_INFO axi_driver.sv(36) @ 5400000: uvm_test_top.env.agt.drv [axi_driver] op=WRITE
UVM_INFO axi_scoreboard.sv(58) @ 5450000: uvm_test_top.env.scb [axi_scoreboard] Write MATCH addr=1c resp=0
UVM_INFO axi_driver.sv(36) @ 5450000: uvm_test_top.env.agt.drv [axi_driver] op=WRITE
UVM_INFO axi_scoreboard.sv(58) @ 5500000: uvm_test_top.env.scb [axi_scoreboard] Write MATCH addr=20 resp=0
UVM_INFO axi_driver.sv(36) @ 5500000: uvm_test_top.env.agt.drv [axi_driver] op=WRITE
UVM_INFO axi_scoreboard.sv(58) @ 5550000: uvm_test_top.env.scb [axi_scoreboard] Write MATCH addr=24 resp=0
UVM_INFO axi_driver.sv(36) @ 5550000: uvm_test_top.env.agt.drv [axi_driver] op=WRITE
UVM_INFO axi_scoreboard.sv(58) @ 5600000: uvm_test_top.env.scb [axi_scoreboard] Write MATCH addr=28 resp=10
UVM_INFO axi_driver.sv(36) @ 5600000: uvm_test_top.env.agt.drv [axi_driver] op=WRITE
UVM_INFO axi_scoreboard.sv(58) @ 5650000: uvm_test_top.env.scb [axi_scoreboard] Write MATCH addr=2c resp=10
UVM_INFO axi_driver.sv(36) @ 5650000: uvm_test_top.env.agt.drv [axi_driver] op=WRITE
UVM_INFO axi_scoreboard.sv(58) @ 5700000: uvm_test_top.env.scb [axi_scoreboard] Write MATCH addr=30 resp=10
UVM_INFO axi_driver.sv(36) @ 5700000: uvm_test_top.env.agt.drv [axi_driver] op=WRITE
UVM_INFO axi_scoreboard.sv(58) @ 5750000: uvm_test_top.env.scb [axi_scoreboard] Write MATCH addr=34 resp=0
UVM_INFO axi_driver.sv(36) @ 5750000: uvm_test_top.env.agt.drv [axi_driver] op=WRITE
UVM_INFO axi_scoreboard.sv(58) @ 5800000: uvm_test_top.env.scb [axi_scoreboard] Write MATCH addr=38 resp=0
UVM_INFO axi_driver.sv(36) @ 5800000: uvm_test_top.env.agt.drv [axi_driver] op=WRITE
UVM_INFO axi_scoreboard.sv(58) @ 5850000: uvm_test_top.env.scb [axi_scoreboard] Write MATCH addr=3c resp=0
UVM_INFO axi_driver.sv(36) @ 5850000: uvm_test_top.env.agt.drv [axi_driver] op=READ
UVM_INFO axi_scoreboard.sv(91) @ 5870000: uvm_test_top.env.scb [axi_scoreboard] Read MATCH addr=0 resp=0 data=3c96472b
UVM_INFO axi_driver.sv(36) @ 5870000: uvm_test_top.env.agt.drv [axi_driver] op=READ
UVM_INFO axi_scoreboard.sv(91) @ 5900000: uvm_test_top.env.scb [axi_scoreboard] Read MATCH addr=4 resp=0 data=5600f9c8
UVM_INFO axi_driver.sv(36) @ 5900000: uvm_test_top.env.agt.drv [axi_driver] op=READ
UVM_INFO axi_scoreboard.sv(91) @ 5930000: uvm_test_top.env.scb [axi_scoreboard] Read MATCH addr=8 resp=0 data=44fb3aca
UVM_INFO axi_driver.sv(36) @ 5930000: uvm_test_top.env.agt.drv [axi_driver] op=READ
UVM_INFO axi_scoreboard.sv(91) @ 5960000: uvm_test_top.env.scb [axi_scoreboard] Read MATCH addr=c resp=0 data=4eb28084
UVM_INFO axi_driver.sv(36) @ 5960000: uvm_test_top.env.agt.drv [axi_driver] op=READ
UVM_INFO axi_scoreboard.sv(91) @ 5990000: uvm_test_top.env.scb [axi_scoreboard] Read MATCH addr=10 resp=0 data=6150b324
UVM_INFO axi_driver.sv(36) @ 5990000: uvm_test_top.env.agt.drv [axi_driver] op=READ
UVM_INFO axi_scoreboard.sv(91) @ 6020000: uvm_test_top.env.scb [axi_scoreboard] Read MATCH addr=14 resp=0 data=5bfea1
UVM_INFO axi_driver.sv(36) @ 6020000: uvm_test_top.env.agt.drv [axi_driver] op=READ
UVM_INFO axi_scoreboard.sv(91) @ 6050000: uvm_test_top.env.scb [axi_scoreboard] Read MATCH addr=18 resp=0 data=839200
UVM_INFO axi_driver.sv(36) @ 6050000: uvm_test_top.env.agt.drv [axi_driver] op=READ
UVM_INFO axi_scoreboard.sv(91) @ 6080000: uvm_test_top.env.scb [axi_scoreboard] Read MATCH addr=1c resp=0 data=85c2d5a2
UVM_INFO axi_driver.sv(36) @ 6080000: uvm_test_top.env.agt.drv [axi_driver] op=READ
UVM_INFO axi_scoreboard.sv(91) @ 6110000: uvm_test_top.env.scb [axi_scoreboard] Read MATCH addr=20 resp=0 data=c100e4dd
UVM_INFO axi_driver.sv(36) @ 6110000: uvm_test_top.env.agt.drv [axi_driver] op=READ
UVM_INFO axi_scoreboard.sv(91) @ 6140000: uvm_test_top.env.scb [axi_scoreboard] Read MATCH addr=24 resp=0 data=bfd9bfb1
UVM_INFO axi_driver.sv(36) @ 6140000: uvm_test_top.env.agt.drv [axi_driver] op=READ
UVM_INFO axi_scoreboard.sv(91) @ 6170000: uvm_test_top.env.scb [axi_scoreboard] Read MATCH addr=28 resp=0 data=0
UVM_INFO axi_driver.sv(36) @ 6170000: uvm_test_top.env.agt.drv [axi_driver] op=READ
UVM_INFO axi_scoreboard.sv(91) @ 6200000: uvm_test_top.env.scb [axi_scoreboard] Read MATCH addr=2c resp=0 data=0
UVM_INFO axi_driver.sv(36) @ 6200000: uvm_test_top.env.agt.drv [axi_driver] op=READ
UVM_INFO axi_scoreboard.sv(91) @ 6230000: uvm_test_top.env.scb [axi_scoreboard] Read MATCH addr=30 resp=0 data=0
UVM_INFO axi_driver.sv(36) @ 6230000: uvm_test_top.env.agt.drv [axi_driver] op=READ
UVM_INFO axi_scoreboard.sv(91) @ 6260000: uvm_test_top.env.scb [axi_scoreboard] Read MATCH addr=34 resp=10 data=0
UVM_INFO axi_driver.sv(36) @ 6260000: uvm_test_top.env.agt.drv [axi_driver] op=READ
UVM_INFO axi_scoreboard.sv(91) @ 6290000: uvm_test_top.env.scb [axi_scoreboard] Read MATCH addr=38 resp=10 data=0
UVM_INFO axi_driver.sv(36) @ 6290000: uvm_test_top.env.agt.drv [axi_driver] op=READ
UVM_INFO axi_scoreboard.sv(91) @ 6320000: uvm_test_top.env.scb [axi_scoreboard] Read MATCH addr=3c resp=0 data=2bc56ec6
UVM_INFO axi_driver.sv(36) @ 6320000: uvm_test_top.env.agt.drv [axi_driver] op=WRITE
UVM_INFO axi_scoreboard.sv(58) @ 6360000: uvm_test_top.env.scb [axi_scoreboard] Write MATCH addr=0 resp=0
UVM_INFO axi_driver.sv(36) @ 6360000: uvm_test_top.env.agt.drv [axi_driver] op=WRITE
UVM_INFO axi_scoreboard.sv(58) @ 6410000: uvm_test_top.env.scb [axi_scoreboard] Write MATCH addr=4 resp=0
UVM_INFO axi_driver.sv(36) @ 6410000: uvm_test_top.env.agt.drv [axi_driver] op=WRITE
UVM_INFO axi_scoreboard.sv(58) @ 6460000: uvm_test_top.env.scb [axi_scoreboard] Write MATCH addr=8 resp=0
UVM_INFO axi_driver.sv(36) @ 6460000: uvm_test_top.env.agt.drv [axi_driver] op=WRITE
UVM_INFO axi_scoreboard.sv(58) @ 6510000: uvm_test_top.env.scb [axi_scoreboard] Write MATCH addr=c resp=0
UVM_INFO axi_driver.sv(36) @ 6510000: uvm_test_top.env.agt.drv [axi_driver] op=WRITE
UVM_INFO axi_scoreboard.sv(58) @ 6560000: uvm_test_top.env.scb [axi_scoreboard] Write MATCH addr=10 resp=0
UVM_INFO axi_driver.sv(36) @ 6560000: uvm_test_top.env.agt.drv [axi_driver] op=WRITE
UVM_INFO axi_scoreboard.sv(58) @ 6610000: uvm_test_top.env.scb [axi_scoreboard] Write MATCH addr=14 resp=0
UVM_INFO axi_driver.sv(36) @ 6610000: uvm_test_top.env.agt.drv [axi_driver] op=WRITE
UVM_INFO axi_scoreboard.sv(58) @ 6660000: uvm_test_top.env.scb [axi_scoreboard] Write MATCH addr=18 resp=0
UVM_INFO axi_driver.sv(36) @ 6660000: uvm_test_top.env.agt.drv [axi_driver] op=WRITE
UVM_INFO axi_scoreboard.sv(58) @ 6710000: uvm_test_top.env.scb [axi_scoreboard] Write MATCH addr=1c resp=0
UVM_INFO axi_driver.sv(36) @ 6710000: uvm_test_top.env.agt.drv [axi_driver] op=WRITE
UVM_INFO axi_scoreboard.sv(58) @ 6760000: uvm_test_top.env.scb [axi_scoreboard] Write MATCH addr=20 resp=0
UVM_INFO axi_driver.sv(36) @ 6760000: uvm_test_top.env.agt.drv [axi_driver] op=WRITE
UVM_INFO axi_scoreboard.sv(58) @ 6810000: uvm_test_top.env.scb [axi_scoreboard] Write MATCH addr=24 resp=0
UVM_INFO axi_driver.sv(36) @ 6810000: uvm_test_top.env.agt.drv [axi_driver] op=WRITE
UVM_INFO axi_scoreboard.sv(58) @ 6860000: uvm_test_top.env.scb [axi_scoreboard] Write MATCH addr=28 resp=10
UVM_INFO axi_driver.sv(36) @ 6860000: uvm_test_top.env.agt.drv [axi_driver] op=WRITE
UVM_INFO axi_scoreboard.sv(58) @ 6910000: uvm_test_top.env.scb [axi_scoreboard] Write MATCH addr=2c resp=10
UVM_INFO axi_driver.sv(36) @ 6910000: uvm_test_top.env.agt.drv [axi_driver] op=WRITE
UVM_INFO axi_scoreboard.sv(58) @ 6960000: uvm_test_top.env.scb [axi_scoreboard] Write MATCH addr=30 resp=10
UVM_INFO axi_driver.sv(36) @ 6960000: uvm_test_top.env.agt.drv [axi_driver] op=WRITE
UVM_INFO axi_scoreboard.sv(58) @ 7010000: uvm_test_top.env.scb [axi_scoreboard] Write MATCH addr=34 resp=0
UVM_INFO axi_driver.sv(36) @ 7010000: uvm_test_top.env.agt.drv [axi_driver] op=WRITE
UVM_INFO axi_scoreboard.sv(58) @ 7060000: uvm_test_top.env.scb [axi_scoreboard] Write MATCH addr=38 resp=0
UVM_INFO axi_driver.sv(36) @ 7060000: uvm_test_top.env.agt.drv [axi_driver] op=WRITE
UVM_INFO axi_scoreboard.sv(58) @ 7110000: uvm_test_top.env.scb [axi_scoreboard] Write MATCH addr=3c resp=0
UVM_INFO axi_driver.sv(36) @ 7110000: uvm_test_top.env.agt.drv [axi_driver] op=READ
UVM_INFO axi_scoreboard.sv(91) @ 7130000: uvm_test_top.env.scb [axi_scoreboard] Read MATCH addr=0 resp=0 data=3c96472b
UVM_INFO axi_driver.sv(36) @ 7130000: uvm_test_top.env.agt.drv [axi_driver] op=READ
UVM_INFO axi_scoreboard.sv(91) @ 7160000: uvm_test_top.env.scb [axi_scoreboard] Read MATCH addr=4 resp=0 data=560046c8
UVM_INFO axi_driver.sv(36) @ 7160000: uvm_test_top.env.agt.drv [axi_driver] op=READ
UVM_INFO axi_scoreboard.sv(91) @ 7190000: uvm_test_top.env.scb [axi_scoreboard] Read MATCH addr=8 resp=0 data=448b3aca
UVM_INFO axi_driver.sv(36) @ 7190000: uvm_test_top.env.agt.drv [axi_driver] op=READ
UVM_INFO axi_scoreboard.sv(91) @ 7220000: uvm_test_top.env.scb [axi_scoreboard] Read MATCH addr=c resp=0 data=4efd8084
UVM_INFO axi_driver.sv(36) @ 7220000: uvm_test_top.env.agt.drv [axi_driver] op=READ
UVM_INFO axi_scoreboard.sv(91) @ 7250000: uvm_test_top.env.scb [axi_scoreboard] Read MATCH addr=10 resp=0 data=6150b324
UVM_INFO axi_driver.sv(36) @ 7250000: uvm_test_top.env.agt.drv [axi_driver] op=READ
UVM_INFO axi_scoreboard.sv(91) @ 7280000: uvm_test_top.env.scb [axi_scoreboard] Read MATCH addr=14 resp=0 data=1c3aab66
UVM_INFO axi_driver.sv(36) @ 7280000: uvm_test_top.env.agt.drv [axi_driver] op=READ
UVM_INFO axi_scoreboard.sv(91) @ 7310000: uvm_test_top.env.scb [axi_scoreboard] Read MATCH addr=18 resp=0 data=b29200
UVM_INFO axi_driver.sv(36) @ 7310000: uvm_test_top.env.agt.drv [axi_driver] op=READ
UVM_INFO axi_scoreboard.sv(91) @ 7340000: uvm_test_top.env.scb [axi_scoreboard] Read MATCH addr=1c resp=0 data=85c7d5a2
UVM_INFO axi_driver.sv(36) @ 7340000: uvm_test_top.env.agt.drv [axi_driver] op=READ
UVM_INFO axi_scoreboard.sv(91) @ 7370000: uvm_test_top.env.scb [axi_scoreboard] Read MATCH addr=20 resp=0 data=f100e4dd
UVM_INFO axi_driver.sv(36) @ 7370000: uvm_test_top.env.agt.drv [axi_driver] op=READ
UVM_INFO axi_scoreboard.sv(91) @ 7400000: uvm_test_top.env.scb [axi_scoreboard] Read MATCH addr=24 resp=0 data=bfd9bf68
UVM_INFO axi_driver.sv(36) @ 7400000: uvm_test_top.env.agt.drv [axi_driver] op=READ
UVM_INFO axi_scoreboard.sv(91) @ 7430000: uvm_test_top.env.scb [axi_scoreboard] Read MATCH addr=28 resp=0 data=0
UVM_INFO axi_driver.sv(36) @ 7430000: uvm_test_top.env.agt.drv [axi_driver] op=READ
UVM_INFO axi_scoreboard.sv(91) @ 7460000: uvm_test_top.env.scb [axi_scoreboard] Read MATCH addr=2c resp=0 data=0
UVM_INFO axi_driver.sv(36) @ 7460000: uvm_test_top.env.agt.drv [axi_driver] op=READ
UVM_INFO axi_scoreboard.sv(91) @ 7490000: uvm_test_top.env.scb [axi_scoreboard] Read MATCH addr=30 resp=0 data=0
UVM_INFO axi_driver.sv(36) @ 7490000: uvm_test_top.env.agt.drv [axi_driver] op=READ
UVM_INFO axi_scoreboard.sv(91) @ 7520000: uvm_test_top.env.scb [axi_scoreboard] Read MATCH addr=34 resp=10 data=0
UVM_INFO axi_driver.sv(36) @ 7520000: uvm_test_top.env.agt.drv [axi_driver] op=READ
UVM_INFO axi_scoreboard.sv(91) @ 7550000: uvm_test_top.env.scb [axi_scoreboard] Read MATCH addr=38 resp=10 data=0
UVM_INFO axi_driver.sv(36) @ 7550000: uvm_test_top.env.agt.drv [axi_driver] op=READ
UVM_INFO axi_scoreboard.sv(91) @ 7580000: uvm_test_top.env.scb [axi_scoreboard] Read MATCH addr=3c resp=0 data=2b0c6ec6
UVM_INFO axi_driver.sv(36) @ 7580000: uvm_test_top.env.agt.drv [axi_driver] op=WRITE
UVM_INFO axi_scoreboard.sv(58) @ 7620000: uvm_test_top.env.scb [axi_scoreboard] Write MATCH addr=0 resp=0
UVM_INFO axi_driver.sv(36) @ 7620000: uvm_test_top.env.agt.drv [axi_driver] op=WRITE
UVM_INFO axi_scoreboard.sv(58) @ 7670000: uvm_test_top.env.scb [axi_scoreboard] Write MATCH addr=4 resp=0
UVM_INFO axi_driver.sv(36) @ 7670000: uvm_test_top.env.agt.drv [axi_driver] op=WRITE
UVM_INFO axi_scoreboard.sv(58) @ 7720000: uvm_test_top.env.scb [axi_scoreboard] Write MATCH addr=8 resp=0
UVM_INFO axi_driver.sv(36) @ 7720000: uvm_test_top.env.agt.drv [axi_driver] op=WRITE
UVM_INFO axi_scoreboard.sv(58) @ 7770000: uvm_test_top.env.scb [axi_scoreboard] Write MATCH addr=c resp=0
UVM_INFO axi_driver.sv(36) @ 7770000: uvm_test_top.env.agt.drv [axi_driver] op=WRITE
UVM_INFO axi_scoreboard.sv(58) @ 7820000: uvm_test_top.env.scb [axi_scoreboard] Write MATCH addr=10 resp=0
UVM_INFO axi_driver.sv(36) @ 7820000: uvm_test_top.env.agt.drv [axi_driver] op=WRITE
UVM_INFO axi_scoreboard.sv(58) @ 7870000: uvm_test_top.env.scb [axi_scoreboard] Write MATCH addr=14 resp=0
UVM_INFO axi_driver.sv(36) @ 7870000: uvm_test_top.env.agt.drv [axi_driver] op=WRITE
UVM_INFO axi_scoreboard.sv(58) @ 7920000: uvm_test_top.env.scb [axi_scoreboard] Write MATCH addr=18 resp=0
UVM_INFO axi_driver.sv(36) @ 7920000: uvm_test_top.env.agt.drv [axi_driver] op=WRITE
UVM_INFO axi_scoreboard.sv(58) @ 7970000: uvm_test_top.env.scb [axi_scoreboard] Write MATCH addr=1c resp=0
UVM_INFO axi_driver.sv(36) @ 7970000: uvm_test_top.env.agt.drv [axi_driver] op=WRITE
UVM_INFO axi_scoreboard.sv(58) @ 8020000: uvm_test_top.env.scb [axi_scoreboard] Write MATCH addr=20 resp=0
UVM_INFO axi_driver.sv(36) @ 8020000: uvm_test_top.env.agt.drv [axi_driver] op=WRITE
UVM_INFO axi_scoreboard.sv(58) @ 8070000: uvm_test_top.env.scb [axi_scoreboard] Write MATCH addr=24 resp=0
UVM_INFO axi_driver.sv(36) @ 8070000: uvm_test_top.env.agt.drv [axi_driver] op=WRITE
UVM_INFO axi_scoreboard.sv(58) @ 8120000: uvm_test_top.env.scb [axi_scoreboard] Write MATCH addr=28 resp=10
UVM_INFO axi_driver.sv(36) @ 8120000: uvm_test_top.env.agt.drv [axi_driver] op=WRITE
UVM_INFO axi_scoreboard.sv(58) @ 8170000: uvm_test_top.env.scb [axi_scoreboard] Write MATCH addr=2c resp=10
UVM_INFO axi_driver.sv(36) @ 8170000: uvm_test_top.env.agt.drv [axi_driver] op=WRITE
UVM_INFO axi_scoreboard.sv(58) @ 8220000: uvm_test_top.env.scb [axi_scoreboard] Write MATCH addr=30 resp=10
UVM_INFO axi_driver.sv(36) @ 8220000: uvm_test_top.env.agt.drv [axi_driver] op=WRITE
UVM_INFO axi_scoreboard.sv(58) @ 8270000: uvm_test_top.env.scb [axi_scoreboard] Write MATCH addr=34 resp=0
UVM_INFO axi_driver.sv(36) @ 8270000: uvm_test_top.env.agt.drv [axi_driver] op=WRITE
UVM_INFO axi_scoreboard.sv(58) @ 8320000: uvm_test_top.env.scb [axi_scoreboard] Write MATCH addr=38 resp=0
UVM_INFO axi_driver.sv(36) @ 8320000: uvm_test_top.env.agt.drv [axi_driver] op=WRITE
UVM_INFO axi_scoreboard.sv(58) @ 8370000: uvm_test_top.env.scb [axi_scoreboard] Write MATCH addr=3c resp=0
UVM_INFO axi_driver.sv(36) @ 8370000: uvm_test_top.env.agt.drv [axi_driver] op=READ
UVM_INFO axi_scoreboard.sv(91) @ 8390000: uvm_test_top.env.scb [axi_scoreboard] Read MATCH addr=0 resp=0 data=e285c084
UVM_INFO axi_driver.sv(36) @ 8390000: uvm_test_top.env.agt.drv [axi_driver] op=READ
UVM_INFO axi_scoreboard.sv(91) @ 8420000: uvm_test_top.env.scb [axi_scoreboard] Read MATCH addr=4 resp=0 data=d80046c8
UVM_INFO axi_driver.sv(36) @ 8420000: uvm_test_top.env.agt.drv [axi_driver] op=READ
UVM_INFO axi_scoreboard.sv(91) @ 8450000: uvm_test_top.env.scb [axi_scoreboard] Read MATCH addr=8 resp=0 data=f98b3aca
UVM_INFO axi_driver.sv(36) @ 8450000: uvm_test_top.env.agt.drv [axi_driver] op=READ
UVM_INFO axi_scoreboard.sv(91) @ 8480000: uvm_test_top.env.scb [axi_scoreboard] Read MATCH addr=c resp=0 data=4efd8097
UVM_INFO axi_driver.sv(36) @ 8480000: uvm_test_top.env.agt.drv [axi_driver] op=READ
UVM_INFO axi_scoreboard.sv(91) @ 8510000: uvm_test_top.env.scb [axi_scoreboard] Read MATCH addr=10 resp=0 data=6150b341
UVM_INFO axi_driver.sv(36) @ 8510000: uvm_test_top.env.agt.drv [axi_driver] op=READ
UVM_INFO axi_scoreboard.sv(91) @ 8540000: uvm_test_top.env.scb [axi_scoreboard] Read MATCH addr=14 resp=0 data=1ce1ab66
UVM_INFO axi_driver.sv(36) @ 8540000: uvm_test_top.env.agt.drv [axi_driver] op=READ
UVM_INFO axi_scoreboard.sv(91) @ 8570000: uvm_test_top.env.scb [axi_scoreboard] Read MATCH addr=18 resp=0 data=b2929a
UVM_INFO axi_driver.sv(36) @ 8570000: uvm_test_top.env.agt.drv [axi_driver] op=READ
UVM_INFO axi_scoreboard.sv(91) @ 8600000: uvm_test_top.env.scb [axi_scoreboard] Read MATCH addr=1c resp=0 data=85c774a2
UVM_INFO axi_driver.sv(36) @ 8600000: uvm_test_top.env.agt.drv [axi_driver] op=READ
UVM_INFO axi_scoreboard.sv(91) @ 8630000: uvm_test_top.env.scb [axi_scoreboard] Read MATCH addr=20 resp=0 data=1900e4dd
UVM_INFO axi_driver.sv(36) @ 8630000: uvm_test_top.env.agt.drv [axi_driver] op=READ
UVM_INFO axi_scoreboard.sv(91) @ 8660000: uvm_test_top.env.scb [axi_scoreboard] Read MATCH addr=24 resp=0 data=bf8fbf68
UVM_INFO axi_driver.sv(36) @ 8660000: uvm_test_top.env.agt.drv [axi_driver] op=READ
UVM_INFO axi_scoreboard.sv(91) @ 8690000: uvm_test_top.env.scb [axi_scoreboard] Read MATCH addr=28 resp=0 data=0
UVM_INFO axi_driver.sv(36) @ 8690000: uvm_test_top.env.agt.drv [axi_driver] op=READ
UVM_INFO axi_scoreboard.sv(91) @ 8720000: uvm_test_top.env.scb [axi_scoreboard] Read MATCH addr=2c resp=0 data=0
UVM_INFO axi_driver.sv(36) @ 8720000: uvm_test_top.env.agt.drv [axi_driver] op=READ
UVM_INFO axi_scoreboard.sv(91) @ 8750000: uvm_test_top.env.scb [axi_scoreboard] Read MATCH addr=30 resp=0 data=0
UVM_INFO axi_driver.sv(36) @ 8750000: uvm_test_top.env.agt.drv [axi_driver] op=READ
UVM_INFO axi_scoreboard.sv(91) @ 8780000: uvm_test_top.env.scb [axi_scoreboard] Read MATCH addr=34 resp=10 data=0
UVM_INFO axi_driver.sv(36) @ 8780000: uvm_test_top.env.agt.drv [axi_driver] op=READ
UVM_INFO axi_scoreboard.sv(91) @ 8810000: uvm_test_top.env.scb [axi_scoreboard] Read MATCH addr=38 resp=10 data=0
UVM_INFO axi_driver.sv(36) @ 8810000: uvm_test_top.env.agt.drv [axi_driver] op=READ
UVM_INFO axi_scoreboard.sv(91) @ 8840000: uvm_test_top.env.scb [axi_scoreboard] Read MATCH addr=3c resp=0 data=940c6ec6
UVM_INFO axi_driver.sv(36) @ 8840000: uvm_test_top.env.agt.drv [axi_driver] op=WRITE
UVM_INFO axi_scoreboard.sv(58) @ 8880000: uvm_test_top.env.scb [axi_scoreboard] Write MATCH addr=0 resp=0
UVM_INFO axi_driver.sv(36) @ 8880000: uvm_test_top.env.agt.drv [axi_driver] op=WRITE
UVM_INFO axi_scoreboard.sv(58) @ 8930000: uvm_test_top.env.scb [axi_scoreboard] Write MATCH addr=4 resp=0
UVM_INFO axi_driver.sv(36) @ 8930000: uvm_test_top.env.agt.drv [axi_driver] op=WRITE
UVM_INFO axi_scoreboard.sv(58) @ 8980000: uvm_test_top.env.scb [axi_scoreboard] Write MATCH addr=8 resp=0
UVM_INFO axi_driver.sv(36) @ 8980000: uvm_test_top.env.agt.drv [axi_driver] op=WRITE
UVM_INFO axi_scoreboard.sv(58) @ 9030000: uvm_test_top.env.scb [axi_scoreboard] Write MATCH addr=c resp=0
UVM_INFO axi_driver.sv(36) @ 9030000: uvm_test_top.env.agt.drv [axi_driver] op=WRITE
UVM_INFO axi_scoreboard.sv(58) @ 9080000: uvm_test_top.env.scb [axi_scoreboard] Write MATCH addr=10 resp=0
UVM_INFO axi_driver.sv(36) @ 9080000: uvm_test_top.env.agt.drv [axi_driver] op=WRITE
UVM_INFO axi_scoreboard.sv(58) @ 9130000: uvm_test_top.env.scb [axi_scoreboard] Write MATCH addr=14 resp=0
UVM_INFO axi_driver.sv(36) @ 9130000: uvm_test_top.env.agt.drv [axi_driver] op=WRITE
UVM_INFO axi_scoreboard.sv(58) @ 9180000: uvm_test_top.env.scb [axi_scoreboard] Write MATCH addr=18 resp=0
UVM_INFO axi_driver.sv(36) @ 9180000: uvm_test_top.env.agt.drv [axi_driver] op=WRITE
UVM_INFO axi_scoreboard.sv(58) @ 9230000: uvm_test_top.env.scb [axi_scoreboard] Write MATCH addr=1c resp=0
UVM_INFO axi_driver.sv(36) @ 9230000: uvm_test_top.env.agt.drv [axi_driver] op=WRITE
UVM_INFO axi_scoreboard.sv(58) @ 9280000: uvm_test_top.env.scb [axi_scoreboard] Write MATCH addr=20 resp=0
UVM_INFO axi_driver.sv(36) @ 9280000: uvm_test_top.env.agt.drv [axi_driver] op=WRITE
UVM_INFO axi_scoreboard.sv(58) @ 9330000: uvm_test_top.env.scb [axi_scoreboard] Write MATCH addr=24 resp=0
UVM_INFO axi_driver.sv(36) @ 9330000: uvm_test_top.env.agt.drv [axi_driver] op=WRITE
UVM_INFO axi_scoreboard.sv(58) @ 9380000: uvm_test_top.env.scb [axi_scoreboard] Write MATCH addr=28 resp=10
UVM_INFO axi_driver.sv(36) @ 9380000: uvm_test_top.env.agt.drv [axi_driver] op=WRITE
UVM_INFO axi_scoreboard.sv(58) @ 9430000: uvm_test_top.env.scb [axi_scoreboard] Write MATCH addr=2c resp=10
UVM_INFO axi_driver.sv(36) @ 9430000: uvm_test_top.env.agt.drv [axi_driver] op=WRITE
UVM_INFO axi_scoreboard.sv(58) @ 9480000: uvm_test_top.env.scb [axi_scoreboard] Write MATCH addr=30 resp=10
UVM_INFO axi_driver.sv(36) @ 9480000: uvm_test_top.env.agt.drv [axi_driver] op=WRITE
UVM_INFO axi_scoreboard.sv(58) @ 9530000: uvm_test_top.env.scb [axi_scoreboard] Write MATCH addr=34 resp=0
UVM_INFO axi_driver.sv(36) @ 9530000: uvm_test_top.env.agt.drv [axi_driver] op=WRITE
UVM_INFO axi_scoreboard.sv(58) @ 9580000: uvm_test_top.env.scb [axi_scoreboard] Write MATCH addr=38 resp=0
UVM_INFO axi_driver.sv(36) @ 9580000: uvm_test_top.env.agt.drv [axi_driver] op=WRITE
UVM_INFO axi_scoreboard.sv(58) @ 9630000: uvm_test_top.env.scb [axi_scoreboard] Write MATCH addr=3c resp=0
UVM_INFO axi_driver.sv(36) @ 9630000: uvm_test_top.env.agt.drv [axi_driver] op=READ
UVM_INFO axi_scoreboard.sv(91) @ 9650000: uvm_test_top.env.scb [axi_scoreboard] Read MATCH addr=0 resp=0 data=e285c018
UVM_INFO axi_driver.sv(36) @ 9650000: uvm_test_top.env.agt.drv [axi_driver] op=READ
UVM_INFO axi_scoreboard.sv(91) @ 9680000: uvm_test_top.env.scb [axi_scoreboard] Read MATCH addr=4 resp=0 data=d80046e4
UVM_INFO axi_driver.sv(36) @ 9680000: uvm_test_top.env.agt.drv [axi_driver] op=READ
UVM_INFO axi_scoreboard.sv(91) @ 9710000: uvm_test_top.env.scb [axi_scoreboard] Read MATCH addr=8 resp=0 data=f98baeca
UVM_INFO axi_driver.sv(36) @ 9710000: uvm_test_top.env.agt.drv [axi_driver] op=READ
UVM_INFO axi_scoreboard.sv(91) @ 9740000: uvm_test_top.env.scb [axi_scoreboard] Read MATCH addr=c resp=0 data=4efd8097
UVM_INFO axi_driver.sv(36) @ 9740000: uvm_test_top.env.agt.drv [axi_driver] op=READ
UVM_INFO axi_scoreboard.sv(91) @ 9770000: uvm_test_top.env.scb [axi_scoreboard] Read MATCH addr=10 resp=0 data=6150b3f4
UVM_INFO axi_driver.sv(36) @ 9770000: uvm_test_top.env.agt.drv [axi_driver] op=READ
UVM_INFO axi_scoreboard.sv(91) @ 9800000: uvm_test_top.env.scb [axi_scoreboard] Read MATCH addr=14 resp=0 data=1ce1ab43
UVM_INFO axi_driver.sv(36) @ 9800000: uvm_test_top.env.agt.drv [axi_driver] op=READ
UVM_INFO axi_scoreboard.sv(91) @ 9830000: uvm_test_top.env.scb [axi_scoreboard] Read MATCH addr=18 resp=0 data=9bb8b122
UVM_INFO axi_driver.sv(36) @ 9830000: uvm_test_top.env.agt.drv [axi_driver] op=READ
UVM_INFO axi_scoreboard.sv(91) @ 9860000: uvm_test_top.env.scb [axi_scoreboard] Read MATCH addr=1c resp=0 data=85c774ed
UVM_INFO axi_driver.sv(36) @ 9860000: uvm_test_top.env.agt.drv [axi_driver] op=READ
UVM_INFO axi_scoreboard.sv(91) @ 9890000: uvm_test_top.env.scb [axi_scoreboard] Read MATCH addr=20 resp=0 data=1900ffdd
UVM_INFO axi_driver.sv(36) @ 9890000: uvm_test_top.env.agt.drv [axi_driver] op=READ
UVM_INFO axi_scoreboard.sv(91) @ 9920000: uvm_test_top.env.scb [axi_scoreboard] Read MATCH addr=24 resp=0 data=bf8fbf68
UVM_INFO axi_driver.sv(36) @ 9920000: uvm_test_top.env.agt.drv [axi_driver] op=READ
UVM_INFO axi_scoreboard.sv(91) @ 9950000: uvm_test_top.env.scb [axi_scoreboard] Read MATCH addr=28 resp=0 data=0
UVM_INFO axi_driver.sv(36) @ 9950000: uvm_test_top.env.agt.drv [axi_driver] op=READ
UVM_INFO axi_scoreboard.sv(91) @ 9980000: uvm_test_top.env.scb [axi_scoreboard] Read MATCH addr=2c resp=0 data=0
UVM_INFO axi_driver.sv(36) @ 9980000: uvm_test_top.env.agt.drv [axi_driver] op=READ
UVM_INFO axi_scoreboard.sv(91) @ 10010000: uvm_test_top.env.scb [axi_scoreboard] Read MATCH addr=30 resp=0 data=0
UVM_INFO axi_driver.sv(36) @ 10010000: uvm_test_top.env.agt.drv [axi_driver] op=READ
UVM_INFO axi_scoreboard.sv(91) @ 10040000: uvm_test_top.env.scb [axi_scoreboard] Read MATCH addr=34 resp=10 data=0
UVM_INFO axi_driver.sv(36) @ 10040000: uvm_test_top.env.agt.drv [axi_driver] op=READ
UVM_INFO axi_scoreboard.sv(91) @ 10070000: uvm_test_top.env.scb [axi_scoreboard] Read MATCH addr=38 resp=10 data=0
UVM_INFO axi_driver.sv(36) @ 10070000: uvm_test_top.env.agt.drv [axi_driver] op=READ
UVM_INFO axi_scoreboard.sv(91) @ 10100000: uvm_test_top.env.scb [axi_scoreboard] Read MATCH addr=3c resp=0 data=94d16ec6
UVM_INFO axi_driver.sv(36) @ 10100000: uvm_test_top.env.agt.drv [axi_driver] op=WRITE
UVM_INFO axi_scoreboard.sv(58) @ 10140000: uvm_test_top.env.scb [axi_scoreboard] Write MATCH addr=0 resp=0
UVM_INFO axi_driver.sv(36) @ 10140000: uvm_test_top.env.agt.drv [axi_driver] op=WRITE
UVM_INFO axi_scoreboard.sv(58) @ 10190000: uvm_test_top.env.scb [axi_scoreboard] Write MATCH addr=4 resp=0
UVM_INFO axi_driver.sv(36) @ 10190000: uvm_test_top.env.agt.drv [axi_driver] op=WRITE
UVM_INFO axi_scoreboard.sv(58) @ 10240000: uvm_test_top.env.scb [axi_scoreboard] Write MATCH addr=8 resp=0
UVM_INFO axi_driver.sv(36) @ 10240000: uvm_test_top.env.agt.drv [axi_driver] op=WRITE
UVM_INFO axi_scoreboard.sv(58) @ 10290000: uvm_test_top.env.scb [axi_scoreboard] Write MATCH addr=c resp=0
UVM_INFO axi_driver.sv(36) @ 10290000: uvm_test_top.env.agt.drv [axi_driver] op=WRITE
UVM_INFO axi_scoreboard.sv(58) @ 10340000: uvm_test_top.env.scb [axi_scoreboard] Write MATCH addr=10 resp=0
UVM_INFO axi_driver.sv(36) @ 10340000: uvm_test_top.env.agt.drv [axi_driver] op=WRITE
UVM_INFO axi_scoreboard.sv(58) @ 10390000: uvm_test_top.env.scb [axi_scoreboard] Write MATCH addr=14 resp=0
UVM_INFO axi_driver.sv(36) @ 10390000: uvm_test_top.env.agt.drv [axi_driver] op=WRITE
UVM_INFO axi_scoreboard.sv(58) @ 10440000: uvm_test_top.env.scb [axi_scoreboard] Write MATCH addr=18 resp=0
UVM_INFO axi_driver.sv(36) @ 10440000: uvm_test_top.env.agt.drv [axi_driver] op=WRITE
UVM_INFO axi_scoreboard.sv(58) @ 10490000: uvm_test_top.env.scb [axi_scoreboard] Write MATCH addr=1c resp=0
UVM_INFO axi_driver.sv(36) @ 10490000: uvm_test_top.env.agt.drv [axi_driver] op=WRITE
UVM_INFO axi_scoreboard.sv(58) @ 10540000: uvm_test_top.env.scb [axi_scoreboard] Write MATCH addr=20 resp=0
UVM_INFO axi_driver.sv(36) @ 10540000: uvm_test_top.env.agt.drv [axi_driver] op=WRITE
UVM_INFO axi_scoreboard.sv(58) @ 10590000: uvm_test_top.env.scb [axi_scoreboard] Write MATCH addr=24 resp=0
UVM_INFO axi_driver.sv(36) @ 10590000: uvm_test_top.env.agt.drv [axi_driver] op=WRITE
UVM_INFO axi_scoreboard.sv(58) @ 10640000: uvm_test_top.env.scb [axi_scoreboard] Write MATCH addr=28 resp=10
UVM_INFO axi_driver.sv(36) @ 10640000: uvm_test_top.env.agt.drv [axi_driver] op=WRITE
UVM_INFO axi_scoreboard.sv(58) @ 10690000: uvm_test_top.env.scb [axi_scoreboard] Write MATCH addr=2c resp=10
UVM_INFO axi_driver.sv(36) @ 10690000: uvm_test_top.env.agt.drv [axi_driver] op=WRITE
UVM_INFO axi_scoreboard.sv(58) @ 10740000: uvm_test_top.env.scb [axi_scoreboard] Write MATCH addr=30 resp=10
UVM_INFO axi_driver.sv(36) @ 10740000: uvm_test_top.env.agt.drv [axi_driver] op=WRITE
UVM_INFO axi_scoreboard.sv(58) @ 10790000: uvm_test_top.env.scb [axi_scoreboard] Write MATCH addr=34 resp=0
UVM_INFO axi_driver.sv(36) @ 10790000: uvm_test_top.env.agt.drv [axi_driver] op=WRITE
UVM_INFO axi_scoreboard.sv(58) @ 10840000: uvm_test_top.env.scb [axi_scoreboard] Write MATCH addr=38 resp=0
UVM_INFO axi_driver.sv(36) @ 10840000: uvm_test_top.env.agt.drv [axi_driver] op=WRITE
UVM_INFO axi_scoreboard.sv(58) @ 10890000: uvm_test_top.env.scb [axi_scoreboard] Write MATCH addr=3c resp=0
UVM_INFO axi_driver.sv(36) @ 10890000: uvm_test_top.env.agt.drv [axi_driver] op=READ
UVM_INFO axi_scoreboard.sv(91) @ 10910000: uvm_test_top.env.scb [axi_scoreboard] Read MATCH addr=0 resp=0 data=e285c018
UVM_INFO axi_driver.sv(36) @ 10910000: uvm_test_top.env.agt.drv [axi_driver] op=READ
UVM_INFO axi_scoreboard.sv(91) @ 10940000: uvm_test_top.env.scb [axi_scoreboard] Read MATCH addr=4 resp=0 data=d8dc46e4
UVM_INFO axi_driver.sv(36) @ 10940000: uvm_test_top.env.agt.drv [axi_driver] op=READ
UVM_INFO axi_scoreboard.sv(91) @ 10970000: uvm_test_top.env.scb [axi_scoreboard] Read MATCH addr=8 resp=0 data=b8a8b6f9
UVM_INFO axi_driver.sv(36) @ 10970000: uvm_test_top.env.agt.drv [axi_driver] op=READ
UVM_INFO axi_scoreboard.sv(91) @ 11000000: uvm_test_top.env.scb [axi_scoreboard] Read MATCH addr=c resp=0 data=4e948097
UVM_INFO axi_driver.sv(36) @ 11000000: uvm_test_top.env.agt.drv [axi_driver] op=READ
UVM_INFO axi_scoreboard.sv(91) @ 11030000: uvm_test_top.env.scb [axi_scoreboard] Read MATCH addr=10 resp=0 data=6150b3f4
UVM_INFO axi_driver.sv(36) @ 11030000: uvm_test_top.env.agt.drv [axi_driver] op=READ
UVM_INFO axi_scoreboard.sv(91) @ 11060000: uvm_test_top.env.scb [axi_scoreboard] Read MATCH addr=14 resp=0 data=1ce18d43
UVM_INFO axi_driver.sv(36) @ 11060000: uvm_test_top.env.agt.drv [axi_driver] op=READ
UVM_INFO axi_scoreboard.sv(91) @ 11090000: uvm_test_top.env.scb [axi_scoreboard] Read MATCH addr=18 resp=0 data=8bb8b122
UVM_INFO axi_driver.sv(36) @ 11090000: uvm_test_top.env.agt.drv [axi_driver] op=READ
UVM_INFO axi_scoreboard.sv(91) @ 11120000: uvm_test_top.env.scb [axi_scoreboard] Read MATCH addr=1c resp=0 data=66a291b9
UVM_INFO axi_driver.sv(36) @ 11120000: uvm_test_top.env.agt.drv [axi_driver] op=READ
UVM_INFO axi_scoreboard.sv(91) @ 11150000: uvm_test_top.env.scb [axi_scoreboard] Read MATCH addr=20 resp=0 data=190063dd
UVM_INFO axi_driver.sv(36) @ 11150000: uvm_test_top.env.agt.drv [axi_driver] op=READ
UVM_INFO axi_scoreboard.sv(91) @ 11180000: uvm_test_top.env.scb [axi_scoreboard] Read MATCH addr=24 resp=0 data=bf8fbf68
UVM_INFO axi_driver.sv(36) @ 11180000: uvm_test_top.env.agt.drv [axi_driver] op=READ
UVM_INFO axi_scoreboard.sv(91) @ 11210000: uvm_test_top.env.scb [axi_scoreboard] Read MATCH addr=28 resp=0 data=0
UVM_INFO axi_driver.sv(36) @ 11210000: uvm_test_top.env.agt.drv [axi_driver] op=READ
UVM_INFO axi_scoreboard.sv(91) @ 11240000: uvm_test_top.env.scb [axi_scoreboard] Read MATCH addr=2c resp=0 data=0
UVM_INFO axi_driver.sv(36) @ 11240000: uvm_test_top.env.agt.drv [axi_driver] op=READ
UVM_INFO axi_scoreboard.sv(91) @ 11270000: uvm_test_top.env.scb [axi_scoreboard] Read MATCH addr=30 resp=0 data=0
UVM_INFO axi_driver.sv(36) @ 11270000: uvm_test_top.env.agt.drv [axi_driver] op=READ
UVM_INFO axi_scoreboard.sv(91) @ 11300000: uvm_test_top.env.scb [axi_scoreboard] Read MATCH addr=34 resp=10 data=0
UVM_INFO axi_driver.sv(36) @ 11300000: uvm_test_top.env.agt.drv [axi_driver] op=READ
UVM_INFO axi_scoreboard.sv(91) @ 11330000: uvm_test_top.env.scb [axi_scoreboard] Read MATCH addr=38 resp=10 data=0
UVM_INFO axi_driver.sv(36) @ 11330000: uvm_test_top.env.agt.drv [axi_driver] op=READ
UVM_INFO axi_scoreboard.sv(91) @ 11360000: uvm_test_top.env.scb [axi_scoreboard] Read MATCH addr=3c resp=0 data=997fd36a
UVM_INFO axi_driver.sv(36) @ 11360000: uvm_test_top.env.agt.drv [axi_driver] op=WRITE
UVM_INFO axi_scoreboard.sv(58) @ 11400000: uvm_test_top.env.scb [axi_scoreboard] Write MATCH addr=0 resp=0
UVM_INFO axi_driver.sv(36) @ 11400000: uvm_test_top.env.agt.drv [axi_driver] op=WRITE
UVM_INFO axi_scoreboard.sv(58) @ 11450000: uvm_test_top.env.scb [axi_scoreboard] Write MATCH addr=4 resp=0
UVM_INFO axi_driver.sv(36) @ 11450000: uvm_test_top.env.agt.drv [axi_driver] op=WRITE
UVM_INFO axi_scoreboard.sv(58) @ 11500000: uvm_test_top.env.scb [axi_scoreboard] Write MATCH addr=8 resp=0
UVM_INFO axi_driver.sv(36) @ 11500000: uvm_test_top.env.agt.drv [axi_driver] op=WRITE
UVM_INFO axi_scoreboard.sv(58) @ 11550000: uvm_test_top.env.scb [axi_scoreboard] Write MATCH addr=c resp=0
UVM_INFO axi_driver.sv(36) @ 11550000: uvm_test_top.env.agt.drv [axi_driver] op=WRITE
UVM_INFO axi_scoreboard.sv(58) @ 11600000: uvm_test_top.env.scb [axi_scoreboard] Write MATCH addr=10 resp=0
UVM_INFO axi_driver.sv(36) @ 11600000: uvm_test_top.env.agt.drv [axi_driver] op=WRITE
UVM_INFO axi_scoreboard.sv(58) @ 11650000: uvm_test_top.env.scb [axi_scoreboard] Write MATCH addr=14 resp=0
UVM_INFO axi_driver.sv(36) @ 11650000: uvm_test_top.env.agt.drv [axi_driver] op=WRITE
UVM_INFO axi_scoreboard.sv(58) @ 11700000: uvm_test_top.env.scb [axi_scoreboard] Write MATCH addr=18 resp=0
UVM_INFO axi_driver.sv(36) @ 11700000: uvm_test_top.env.agt.drv [axi_driver] op=WRITE
UVM_INFO axi_scoreboard.sv(58) @ 11750000: uvm_test_top.env.scb [axi_scoreboard] Write MATCH addr=1c resp=0
UVM_INFO axi_driver.sv(36) @ 11750000: uvm_test_top.env.agt.drv [axi_driver] op=WRITE
UVM_INFO axi_scoreboard.sv(58) @ 11800000: uvm_test_top.env.scb [axi_scoreboard] Write MATCH addr=20 resp=0
UVM_INFO axi_driver.sv(36) @ 11800000: uvm_test_top.env.agt.drv [axi_driver] op=WRITE
UVM_INFO axi_scoreboard.sv(58) @ 11850000: uvm_test_top.env.scb [axi_scoreboard] Write MATCH addr=24 resp=0
UVM_INFO axi_driver.sv(36) @ 11850000: uvm_test_top.env.agt.drv [axi_driver] op=WRITE
UVM_INFO axi_scoreboard.sv(58) @ 11900000: uvm_test_top.env.scb [axi_scoreboard] Write MATCH addr=28 resp=10
UVM_INFO axi_driver.sv(36) @ 11900000: uvm_test_top.env.agt.drv [axi_driver] op=WRITE
UVM_INFO axi_scoreboard.sv(58) @ 11950000: uvm_test_top.env.scb [axi_scoreboard] Write MATCH addr=2c resp=10
UVM_INFO axi_driver.sv(36) @ 11950000: uvm_test_top.env.agt.drv [axi_driver] op=WRITE
UVM_INFO axi_scoreboard.sv(58) @ 12000000: uvm_test_top.env.scb [axi_scoreboard] Write MATCH addr=30 resp=10
UVM_INFO axi_driver.sv(36) @ 12000000: uvm_test_top.env.agt.drv [axi_driver] op=WRITE
UVM_INFO axi_scoreboard.sv(58) @ 12050000: uvm_test_top.env.scb [axi_scoreboard] Write MATCH addr=34 resp=0
UVM_INFO axi_driver.sv(36) @ 12050000: uvm_test_top.env.agt.drv [axi_driver] op=WRITE
UVM_INFO axi_scoreboard.sv(58) @ 12100000: uvm_test_top.env.scb [axi_scoreboard] Write MATCH addr=38 resp=0
UVM_INFO axi_driver.sv(36) @ 12100000: uvm_test_top.env.agt.drv [axi_driver] op=WRITE
UVM_INFO axi_scoreboard.sv(58) @ 12150000: uvm_test_top.env.scb [axi_scoreboard] Write MATCH addr=3c resp=0
UVM_INFO axi_driver.sv(36) @ 12150000: uvm_test_top.env.agt.drv [axi_driver] op=READ
UVM_INFO axi_scoreboard.sv(91) @ 12170000: uvm_test_top.env.scb [axi_scoreboard] Read MATCH addr=0 resp=0 data=e285c018
UVM_INFO axi_driver.sv(36) @ 12170000: uvm_test_top.env.agt.drv [axi_driver] op=READ
UVM_INFO axi_scoreboard.sv(91) @ 12200000: uvm_test_top.env.scb [axi_scoreboard] Read MATCH addr=4 resp=0 data=d8dc4607
UVM_INFO axi_driver.sv(36) @ 12200000: uvm_test_top.env.agt.drv [axi_driver] op=READ
UVM_INFO axi_scoreboard.sv(91) @ 12230000: uvm_test_top.env.scb [axi_scoreboard] Read MATCH addr=8 resp=0 data=b8a8b6f9
UVM_INFO axi_driver.sv(36) @ 12230000: uvm_test_top.env.agt.drv [axi_driver] op=READ
UVM_INFO axi_scoreboard.sv(91) @ 12260000: uvm_test_top.env.scb [axi_scoreboard] Read MATCH addr=c resp=0 data=5f948097
UVM_INFO axi_driver.sv(36) @ 12260000: uvm_test_top.env.agt.drv [axi_driver] op=READ
UVM_INFO axi_scoreboard.sv(91) @ 12290000: uvm_test_top.env.scb [axi_scoreboard] Read MATCH addr=10 resp=0 data=f650b3f4
UVM_INFO axi_driver.sv(36) @ 12290000: uvm_test_top.env.agt.drv [axi_driver] op=READ
UVM_INFO axi_scoreboard.sv(91) @ 12320000: uvm_test_top.env.scb [axi_scoreboard] Read MATCH addr=14 resp=0 data=1ce18d43
UVM_INFO axi_driver.sv(36) @ 12320000: uvm_test_top.env.agt.drv [axi_driver] op=READ
UVM_INFO axi_scoreboard.sv(91) @ 12350000: uvm_test_top.env.scb [axi_scoreboard] Read MATCH addr=18 resp=0 data=b7ab52d7
UVM_INFO axi_driver.sv(36) @ 12350000: uvm_test_top.env.agt.drv [axi_driver] op=READ
UVM_INFO axi_scoreboard.sv(91) @ 12380000: uvm_test_top.env.scb [axi_scoreboard] Read MATCH addr=1c resp=0 data=66f691b9
UVM_INFO axi_driver.sv(36) @ 12380000: uvm_test_top.env.agt.drv [axi_driver] op=READ
UVM_INFO axi_scoreboard.sv(91) @ 12410000: uvm_test_top.env.scb [axi_scoreboard] Read MATCH addr=20 resp=0 data=19006352
UVM_INFO axi_driver.sv(36) @ 12410000: uvm_test_top.env.agt.drv [axi_driver] op=READ
UVM_INFO axi_scoreboard.sv(91) @ 12440000: uvm_test_top.env.scb [axi_scoreboard] Read MATCH addr=24 resp=0 data=bf8fbfc3
UVM_INFO axi_driver.sv(36) @ 12440000: uvm_test_top.env.agt.drv [axi_driver] op=READ
UVM_INFO axi_scoreboard.sv(91) @ 12470000: uvm_test_top.env.scb [axi_scoreboard] Read MATCH addr=28 resp=0 data=0
UVM_INFO axi_driver.sv(36) @ 12470000: uvm_test_top.env.agt.drv [axi_driver] op=READ
UVM_INFO axi_scoreboard.sv(91) @ 12500000: uvm_test_top.env.scb [axi_scoreboard] Read MATCH addr=2c resp=0 data=0
UVM_INFO axi_driver.sv(36) @ 12500000: uvm_test_top.env.agt.drv [axi_driver] op=READ
UVM_INFO axi_scoreboard.sv(91) @ 12530000: uvm_test_top.env.scb [axi_scoreboard] Read MATCH addr=30 resp=0 data=0
UVM_INFO axi_driver.sv(36) @ 12530000: uvm_test_top.env.agt.drv [axi_driver] op=READ
UVM_INFO axi_scoreboard.sv(91) @ 12560000: uvm_test_top.env.scb [axi_scoreboard] Read MATCH addr=34 resp=10 data=0
UVM_INFO axi_driver.sv(36) @ 12560000: uvm_test_top.env.agt.drv [axi_driver] op=READ
UVM_INFO axi_scoreboard.sv(91) @ 12590000: uvm_test_top.env.scb [axi_scoreboard] Read MATCH addr=38 resp=10 data=0
UVM_INFO axi_driver.sv(36) @ 12590000: uvm_test_top.env.agt.drv [axi_driver] op=READ
UVM_INFO axi_scoreboard.sv(91) @ 12620000: uvm_test_top.env.scb [axi_scoreboard] Read MATCH addr=3c resp=0 data=a77fd36a
UVM_INFO axi_driver.sv(36) @ 12620000: uvm_test_top.env.agt.drv [axi_driver] op=WRITE
UVM_INFO axi_scoreboard.sv(58) @ 12660000: uvm_test_top.env.scb [axi_scoreboard] Write MATCH addr=0 resp=0
UVM_INFO axi_driver.sv(36) @ 12660000: uvm_test_top.env.agt.drv [axi_driver] op=WRITE
UVM_INFO axi_scoreboard.sv(58) @ 12710000: uvm_test_top.env.scb [axi_scoreboard] Write MATCH addr=ffffffff resp=11
UVM_INFO axi_driver.sv(36) @ 12710000: uvm_test_top.env.agt.drv [axi_driver] op=WRITE
UVM_INFO axi_scoreboard.sv(58) @ 12760000: uvm_test_top.env.scb [axi_scoreboard] Write MATCH addr=0 resp=0
UVM_INFO axi_driver.sv(36) @ 12760000: uvm_test_top.env.agt.drv [axi_driver] op=READ
UVM_INFO axi_scoreboard.sv(91) @ 12780000: uvm_test_top.env.scb [axi_scoreboard] Read MATCH addr=0 resp=0 data=cafe0000
UVM_INFO axi_driver.sv(36) @ 12780000: uvm_test_top.env.agt.drv [axi_driver] op=READ
UVM_INFO axi_scoreboard.sv(91) @ 12810000: uvm_test_top.env.scb [axi_scoreboard] Read MATCH addr=ffffffff resp=11 data=0
UVM_INFO axi_driver.sv(36) @ 12810000: uvm_test_top.env.agt.drv [axi_driver] op=READ
UVM_INFO axi_scoreboard.sv(91) @ 12840000: uvm_test_top.env.scb [axi_scoreboard] Read MATCH addr=0 resp=0 data=cafe0000
UVM_INFO axi_driver.sv(36) @ 12840000: uvm_test_top.env.agt.drv [axi_driver] op=WRITE
UVM_INFO axi_scoreboard.sv(58) @ 12880000: uvm_test_top.env.scb [axi_scoreboard] Write MATCH addr=28 resp=10
UVM_INFO axi_driver.sv(36) @ 12880000: uvm_test_top.env.agt.drv [axi_driver] op=WRITE
UVM_INFO axi_scoreboard.sv(58) @ 12930000: uvm_test_top.env.scb [axi_scoreboard] Write MATCH addr=ffffffff resp=11
UVM_INFO axi_driver.sv(36) @ 12930000: uvm_test_top.env.agt.drv [axi_driver] op=WRITE
UVM_INFO axi_scoreboard.sv(58) @ 12980000: uvm_test_top.env.scb [axi_scoreboard] Write MATCH addr=0 resp=0
UVM_INFO axi_driver.sv(36) @ 12980000: uvm_test_top.env.agt.drv [axi_driver] op=READ
UVM_INFO axi_scoreboard.sv(91) @ 13000000: uvm_test_top.env.scb [axi_scoreboard] Read MATCH addr=28 resp=0 data=0
UVM_INFO axi_driver.sv(36) @ 13000000: uvm_test_top.env.agt.drv [axi_driver] op=READ
UVM_INFO axi_scoreboard.sv(91) @ 13030000: uvm_test_top.env.scb [axi_scoreboard] Read MATCH addr=ffffffff resp=11 data=0
UVM_INFO axi_driver.sv(36) @ 13030000: uvm_test_top.env.agt.drv [axi_driver] op=READ
UVM_INFO axi_scoreboard.sv(91) @ 13060000: uvm_test_top.env.scb [axi_scoreboard] Read MATCH addr=0 resp=0 data=bad0bad0
UVM_INFO axi_driver.sv(36) @ 13060000: uvm_test_top.env.agt.drv [axi_driver] op=WRITE
UVM_INFO axi_scoreboard.sv(58) @ 13100000: uvm_test_top.env.scb [axi_scoreboard] Write MATCH addr=34 resp=0
UVM_INFO axi_driver.sv(36) @ 13100000: uvm_test_top.env.agt.drv [axi_driver] op=WRITE
UVM_INFO axi_scoreboard.sv(58) @ 13150000: uvm_test_top.env.scb [axi_scoreboard] Write MATCH addr=ffffffff resp=11
UVM_INFO axi_driver.sv(36) @ 13150000: uvm_test_top.env.agt.drv [axi_driver] op=WRITE
UVM_INFO axi_scoreboard.sv(58) @ 13200000: uvm_test_top.env.scb [axi_scoreboard] Write MATCH addr=0 resp=0
UVM_INFO axi_driver.sv(36) @ 13200000: uvm_test_top.env.agt.drv [axi_driver] op=READ
UVM_INFO axi_scoreboard.sv(91) @ 13220000: uvm_test_top.env.scb [axi_scoreboard] Read MATCH addr=34 resp=10 data=0
UVM_INFO axi_driver.sv(36) @ 13220000: uvm_test_top.env.agt.drv [axi_driver] op=READ
UVM_INFO axi_scoreboard.sv(91) @ 13250000: uvm_test_top.env.scb [axi_scoreboard] Read MATCH addr=ffffffff resp=11 data=0
UVM_INFO axi_driver.sv(36) @ 13250000: uvm_test_top.env.agt.drv [axi_driver] op=READ
UVM_INFO axi_scoreboard.sv(91) @ 13280000: uvm_test_top.env.scb [axi_scoreboard] Read MATCH addr=0 resp=0 data=feed0000
UVM_INFO axi_driver.sv(36) @ 13280000: uvm_test_top.env.agt.drv [axi_driver] op=WRITE
UVM_INFO axi_scoreboard.sv(58) @ 13320000: uvm_test_top.env.scb [axi_scoreboard] Write MATCH addr=1 resp=10
UVM_INFO axi_driver.sv(36) @ 13320000: uvm_test_top.env.agt.drv [axi_driver] op=WRITE
UVM_INFO axi_scoreboard.sv(58) @ 13370000: uvm_test_top.env.scb [axi_scoreboard] Write MATCH addr=ffffffff resp=11
UVM_INFO axi_driver.sv(36) @ 13370000: uvm_test_top.env.agt.drv [axi_driver] op=WRITE
UVM_INFO axi_scoreboard.sv(58) @ 13420000: uvm_test_top.env.scb [axi_scoreboard] Write MATCH addr=0 resp=0
UVM_INFO axi_driver.sv(36) @ 13420000: uvm_test_top.env.agt.drv [axi_driver] op=READ
UVM_INFO axi_scoreboard.sv(91) @ 13440000: uvm_test_top.env.scb [axi_scoreboard] Read MATCH addr=2 resp=10 data=0
UVM_INFO axi_driver.sv(36) @ 13440000: uvm_test_top.env.agt.drv [axi_driver] op=READ
UVM_INFO axi_scoreboard.sv(91) @ 13470000: uvm_test_top.env.scb [axi_scoreboard] Read MATCH addr=ffffffff resp=11 data=0
UVM_INFO axi_driver.sv(36) @ 13470000: uvm_test_top.env.agt.drv [axi_driver] op=READ
UVM_INFO axi_scoreboard.sv(91) @ 13500000: uvm_test_top.env.scb [axi_scoreboard] Read MATCH addr=0 resp=0 data=0
UVM_INFO axi_driver.sv(36) @ 13500000: uvm_test_top.env.agt.drv [axi_driver] op=WRITE
UVM_INFO axi_scoreboard.sv(58) @ 13540000: uvm_test_top.env.scb [axi_scoreboard] Write MATCH addr=3c resp=0
UVM_INFO axi_driver.sv(36) @ 13540000: uvm_test_top.env.agt.drv [axi_driver] op=WRITE
UVM_INFO axi_scoreboard.sv(58) @ 13590000: uvm_test_top.env.scb [axi_scoreboard] Write MATCH addr=ffffffff resp=11
UVM_INFO axi_driver.sv(36) @ 13590000: uvm_test_top.env.agt.drv [axi_driver] op=WRITE
UVM_INFO axi_scoreboard.sv(58) @ 13640000: uvm_test_top.env.scb [axi_scoreboard] Write MATCH addr=0 resp=0
UVM_INFO axi_driver.sv(36) @ 13640000: uvm_test_top.env.agt.drv [axi_driver] op=READ
UVM_ERROR axi_scoreboard.sv(88) @ 13660000: uvm_test_top.env.scb [axi_scoreboard] Read MISMATCH addr=3c exp_resp=0 got_resp=0 exp_data=abcd1234 got_data=0
UVM_INFO axi_driver.sv(36) @ 13660000: uvm_test_top.env.agt.drv [axi_driver] op=READ
UVM_INFO axi_scoreboard.sv(91) @ 13690000: uvm_test_top.env.scb [axi_scoreboard] Read MATCH addr=ffffffff resp=11 data=0
UVM_INFO axi_driver.sv(36) @ 13690000: uvm_test_top.env.agt.drv [axi_driver] op=READ
UVM_INFO axi_scoreboard.sv(91) @ 13720000: uvm_test_top.env.scb [axi_scoreboard] Read MATCH addr=0 resp=0 data=abcd1234
UVM_INFO axi_driver.sv(36) @ 13720000: uvm_test_top.env.agt.drv [axi_driver] op=WRITE
UVM_INFO axi_scoreboard.sv(58) @ 13760000: uvm_test_top.env.scb [axi_scoreboard] Write MATCH addr=100 resp=11
UVM_INFO axi_driver.sv(36) @ 13760000: uvm_test_top.env.agt.drv [axi_driver] op=WRITE
UVM_INFO axi_scoreboard.sv(58) @ 13810000: uvm_test_top.env.scb [axi_scoreboard] Write MATCH addr=ffffffff resp=11
UVM_INFO axi_driver.sv(36) @ 13810000: uvm_test_top.env.agt.drv [axi_driver] op=WRITE
UVM_INFO axi_scoreboard.sv(58) @ 13860000: uvm_test_top.env.scb [axi_scoreboard] Write MATCH addr=0 resp=0
UVM_INFO axi_driver.sv(36) @ 13860000: uvm_test_top.env.agt.drv [axi_driver] op=READ
UVM_INFO axi_scoreboard.sv(91) @ 13880000: uvm_test_top.env.scb [axi_scoreboard] Read MATCH addr=100 resp=11 data=0
UVM_INFO axi_driver.sv(36) @ 13880000: uvm_test_top.env.agt.drv [axi_driver] op=READ
UVM_INFO axi_scoreboard.sv(91) @ 13910000: uvm_test_top.env.scb [axi_scoreboard] Read MATCH addr=ffffffff resp=11 data=0
UVM_INFO axi_driver.sv(36) @ 13910000: uvm_test_top.env.agt.drv [axi_driver] op=READ
UVM_INFO axi_scoreboard.sv(91) @ 13940000: uvm_test_top.env.scb [axi_scoreboard] Read MATCH addr=0 resp=0 data=0
UVM_INFO axi_driver.sv(36) @ 13940000: uvm_test_top.env.agt.drv [axi_driver] op=WRITE
UVM_INFO axi_scoreboard.sv(58) @ 13980000: uvm_test_top.env.scb [axi_scoreboard] Write MATCH addr=0 resp=0
UVM_INFO axi_driver.sv(36) @ 13980000: uvm_test_top.env.agt.drv [axi_driver] op=WRITE
UVM_INFO axi_scoreboard.sv(58) @ 14030000: uvm_test_top.env.scb [axi_scoreboard] Write MATCH addr=ffffffff resp=11
UVM_INFO axi_driver.sv(36) @ 14030000: uvm_test_top.env.agt.drv [axi_driver] op=WRITE
UVM_INFO axi_scoreboard.sv(58) @ 14080000: uvm_test_top.env.scb [axi_scoreboard] Write MATCH addr=0 resp=0
UVM_INFO axi_driver.sv(36) @ 14080000: uvm_test_top.env.agt.drv [axi_driver] op=WRITE
UVM_INFO axi_scoreboard.sv(58) @ 14130000: uvm_test_top.env.scb [axi_scoreboard] Write MATCH addr=100 resp=11
UVM_INFO axi_driver.sv(36) @ 14130000: uvm_test_top.env.agt.drv [axi_driver] op=WRITE
UVM_INFO axi_scoreboard.sv(58) @ 14180000: uvm_test_top.env.scb [axi_scoreboard] Write MATCH addr=ffffffff resp=11
UVM_INFO axi_driver.sv(36) @ 14180000: uvm_test_top.env.agt.drv [axi_driver] op=WRITE
UVM_INFO axi_scoreboard.sv(58) @ 14230000: uvm_test_top.env.scb [axi_scoreboard] Write MATCH addr=0 resp=0
UVM_INFO axi_driver.sv(36) @ 14230000: uvm_test_top.env.agt.drv [axi_driver] op=READ
UVM_INFO axi_scoreboard.sv(91) @ 14250000: uvm_test_top.env.scb [axi_scoreboard] Read MATCH addr=0 resp=0 data=11111111
UVM_INFO axi_driver.sv(36) @ 14250000: uvm_test_top.env.agt.drv [axi_driver] op=READ
UVM_INFO axi_scoreboard.sv(91) @ 14280000: uvm_test_top.env.scb [axi_scoreboard] Read MATCH addr=ffffffff resp=11 data=0
UVM_INFO axi_driver.sv(36) @ 14280000: uvm_test_top.env.agt.drv [axi_driver] op=READ
UVM_INFO axi_scoreboard.sv(91) @ 14310000: uvm_test_top.env.scb [axi_scoreboard] Read MATCH addr=0 resp=0 data=11111111
UVM_INFO axi_driver.sv(36) @ 14310000: uvm_test_top.env.agt.drv [axi_driver] op=WRITE
UVM_INFO axi_scoreboard.sv(58) @ 14350000: uvm_test_top.env.scb [axi_scoreboard] Write MATCH addr=ffffffff resp=11
UVM_INFO axi_driver.sv(36) @ 14350000: uvm_test_top.env.agt.drv [axi_driver] op=WRITE
UVM_INFO axi_scoreboard.sv(58) @ 14400000: uvm_test_top.env.scb [axi_scoreboard] Write MATCH addr=ffffffff resp=11
UVM_INFO axi_driver.sv(36) @ 14400000: uvm_test_top.env.agt.drv [axi_driver] op=WRITE
UVM_INFO axi_scoreboard.sv(58) @ 14450000: uvm_test_top.env.scb [axi_scoreboard] Write MATCH addr=0 resp=0
UVM_INFO axi_driver.sv(36) @ 14450000: uvm_test_top.env.agt.drv [axi_driver] op=WRITE
UVM_INFO axi_scoreboard.sv(58) @ 14500000: uvm_test_top.env.scb [axi_scoreboard] Write MATCH addr=0 resp=0
UVM_INFO axi_driver.sv(36) @ 14500000: uvm_test_top.env.agt.drv [axi_driver] op=WRITE
UVM_INFO axi_scoreboard.sv(58) @ 14550000: uvm_test_top.env.scb [axi_scoreboard] Write MATCH addr=ffffffff resp=11
UVM_INFO axi_driver.sv(36) @ 14550000: uvm_test_top.env.agt.drv [axi_driver] op=WRITE
UVM_INFO axi_scoreboard.sv(58) @ 14600000: uvm_test_top.env.scb [axi_scoreboard] Write MATCH addr=0 resp=0
UVM_INFO axi_driver.sv(36) @ 14600000: uvm_test_top.env.agt.drv [axi_driver] op=READ
UVM_INFO axi_scoreboard.sv(91) @ 14620000: uvm_test_top.env.scb [axi_scoreboard] Read MATCH addr=ffffffff resp=11 data=0
UVM_INFO axi_driver.sv(36) @ 14620000: uvm_test_top.env.agt.drv [axi_driver] op=READ
UVM_INFO axi_scoreboard.sv(91) @ 14650000: uvm_test_top.env.scb [axi_scoreboard] Read MATCH addr=ffffffff resp=11 data=0
UVM_INFO axi_driver.sv(36) @ 14650000: uvm_test_top.env.agt.drv [axi_driver] op=READ
UVM_INFO axi_scoreboard.sv(91) @ 14680000: uvm_test_top.env.scb [axi_scoreboard] Read MATCH addr=0 resp=0 data=0
UVM_INFO axi_driver.sv(36) @ 14680000: uvm_test_top.env.agt.drv [axi_driver] op=READ
UVM_INFO axi_scoreboard.sv(91) @ 14710000: uvm_test_top.env.scb [axi_scoreboard] Read MATCH addr=0 resp=0 data=0
UVM_INFO axi_driver.sv(36) @ 14710000: uvm_test_top.env.agt.drv [axi_driver] op=READ
UVM_INFO axi_scoreboard.sv(91) @ 14740000: uvm_test_top.env.scb [axi_scoreboard] Read MATCH addr=ffffffff resp=11 data=0
UVM_INFO axi_driver.sv(36) @ 14740000: uvm_test_top.env.agt.drv [axi_driver] op=READ
UVM_INFO axi_scoreboard.sv(91) @ 14770000: uvm_test_top.env.scb [axi_scoreboard] Read MATCH addr=0 resp=0 data=0
UVM_INFO my_test.sv(28) @ 14770000: uvm_test_top [my_test] End of my_test Case
UVM_INFO /fetools/synopsys/installed_tools/vcs/vcs/Q-2020.03-SP2-8/etc/uvm-1.2/base/uvm_objection.svh(1276) @ 14770000: reporter [TEST_DONE] 'run' phase is ready to proceed to the 'extract' phase
UVM_INFO axi_scoreboard.sv(97) @ 14770000: uvm_test_top.env.scb [axi_scoreboard] Scoreboard: PASS=376 FAIL=1
UVM_INFO my_test.sv(33) @ 14770000: uvm_test_top [my_test] ----------------------------------------------Coverage= 100.00% ------------------------
UVM_INFO /fetools/synopsys/installed_tools/vcs/vcs/Q-2020.03-SP2-8/etc/uvm-1.2/base/uvm_report_catcher.svh(705) @ 14770000: reporter [UVM/REPORT/CATCHER] 
--- UVM Report catcher Summary ---


Number of demoted UVM_FATAL reports  :    0
Number of demoted UVM_ERROR reports  :    0
Number of demoted UVM_WARNING reports:    0
Number of caught UVM_FATAL reports   :    0
Number of caught UVM_ERROR reports   :    0
Number of caught UVM_WARNING reports :    0

UVM_INFO /fetools/synopsys/installed_tools/vcs/vcs/Q-2020.03-SP2-8/etc/uvm-1.2/base/uvm_report_server.svh(894) @ 14770000: reporter [UVM/REPORT/SERVER] 
--- UVM Report Summary ---

** Report counts by severity
UVM_INFO :  760
UVM_WARNING :    0
UVM_ERROR :    1
UVM_FATAL :    0
** Report counts by id
[RNTST]     1
[TEST_DONE]     1
[UVM/RELNOTES]     1
[UVM/REPORT/CATCHER]     1
[axi_driver]   377
[axi_scoreboard]   378
[my_test]     2

$finish called from file "/fetools/synopsys/installed_tools/vcs/vcs/Q-2020.03-SP2-8/etc/uvm-1.2/base/uvm_root.svh", line 527.
$finish at simulation time             14770000

---------------------------------------------------------------------------
VCS Coverage Metrics: during simulation line, cond, FSM, branch, tgl was monitored
---------------------------------------------------------------------------
           V C S   S i m u l a t i o n   R e p o r t 
Time: 14770000 ps
CPU Time:      0.900 seconds;       Data structure size:   0.6Mb
Tue Sep 22 00:17:00 2026
